<Qucs Dataset 0.0.19>
<indep time 201>
  +0.00000000000000000000e+000
  +1.00000000000000004792e-004
  +2.00000000000000009584e-004
  +3.00000000000000027929e-004
  +4.00000000000000019169e-004
  +5.00000000000000010408e-004
  +6.00000000000000055858e-004
  +6.99999999999999992888e-004
  +8.00000000000000038337e-004
  +8.99999999999999975367e-004
  +1.00000000000000002082e-003
  +1.10000000000000006627e-003
  +1.20000000000000011172e-003
  +1.29999999999999994033e-003
  +1.39999999999999998578e-003
  +1.50000000000000003123e-003
  +1.60000000000000007667e-003
  +1.70000000000000012212e-003
  +1.79999999999999995073e-003
  +1.89999999999999999618e-003
  +2.00000000000000004163e-003
  +2.09999999999999987024e-003
  +2.20000000000000013253e-003
  +2.29999999999999996114e-003
  +2.40000000000000022343e-003
  +2.50000000000000005204e-003
  +2.59999999999999988065e-003
  +2.70000000000000014294e-003
  +2.79999999999999997155e-003
  +2.90000000000000023384e-003
  +3.00000000000000006245e-003
  +3.09999999999999989106e-003
  +3.20000000000000015335e-003
  +3.29999999999999998196e-003
  +3.40000000000000024425e-003
  +3.50000000000000007286e-003
  +3.59999999999999990147e-003
  +3.70000000000000016376e-003
  +3.79999999999999999237e-003
  +3.90000000000000025466e-003
  +4.00000000000000008327e-003
  +4.10000000000000034556e-003
  +4.19999999999999974049e-003
  +4.30000000000000000278e-003
  +4.40000000000000026507e-003
  +4.50000000000000052736e-003
  +4.59999999999999992228e-003
  +4.70000000000000018457e-003
  +4.80000000000000044686e-003
  +4.89999999999999984179e-003
  +5.00000000000000010408e-003
  +5.10000000000000036637e-003
  +5.19999999999999976130e-003
  +5.30000000000000002359e-003
  +5.40000000000000028588e-003
  +5.49999999999999968081e-003
  +5.59999999999999994310e-003
  +5.70000000000000020539e-003
  +5.80000000000000046768e-003
  +5.89999999999999986261e-003
  +6.00000000000000012490e-003
  +6.10000000000000038719e-003
  +6.19999999999999978212e-003
  +6.30000000000000004441e-003
  +6.40000000000000030670e-003
  +6.50000000000000056899e-003
  +6.59999999999999996392e-003
  +6.70000000000000022621e-003
  +6.80000000000000048850e-003
  +6.89999999999999988343e-003
  +7.00000000000000014572e-003
  +7.10000000000000040801e-003
  +7.19999999999999980294e-003
  +7.30000000000000006523e-003
  +7.40000000000000032752e-003
  +7.49999999999999972244e-003
  +7.59999999999999998473e-003
  +7.70000000000000024702e-003
  +7.80000000000000050931e-003
  +7.90000000000000077161e-003
  +8.00000000000000016653e-003
  +8.09999999999999956146e-003
  +8.20000000000000069111e-003
  +8.30000000000000008604e-003
  +8.39999999999999948097e-003
  +8.50000000000000061062e-003
  +8.60000000000000000555e-003
  +8.69999999999999940048e-003
  +8.80000000000000053013e-003
  +8.89999999999999992506e-003
  +9.00000000000000105471e-003
  +9.10000000000000044964e-003
  +9.19999999999999984457e-003
  +9.30000000000000097422e-003
  +9.40000000000000036915e-003
  +9.49999999999999976408e-003
  +9.60000000000000089373e-003
  +9.70000000000000028866e-003
  +9.79999999999999968359e-003
  +9.90000000000000081324e-003
  +1.00000000000000002082e-002
  +1.00999999999999996031e-002
  +1.02000000000000007327e-002
  +1.03000000000000001277e-002
  +1.03999999999999995226e-002
  +1.05000000000000006523e-002
  +1.06000000000000000472e-002
  +1.06999999999999994421e-002
  +1.08000000000000005718e-002
  +1.08999999999999999667e-002
  +1.09999999999999993616e-002
  +1.11000000000000004913e-002
  +1.11999999999999998862e-002
  +1.13000000000000010159e-002
  +1.14000000000000004108e-002
  +1.14999999999999998057e-002
  +1.16000000000000009354e-002
  +1.17000000000000003303e-002
  +1.17999999999999997252e-002
  +1.19000000000000008549e-002
  +1.20000000000000002498e-002
  +1.20999999999999996447e-002
  +1.22000000000000007744e-002
  +1.23000000000000001693e-002
  +1.23999999999999995642e-002
  +1.25000000000000006939e-002
  +1.26000000000000000888e-002
  +1.26999999999999994837e-002
  +1.28000000000000006134e-002
  +1.29000000000000000083e-002
  +1.30000000000000011380e-002
  +1.31000000000000005329e-002
  +1.31999999999999999278e-002
  +1.33000000000000010575e-002
  +1.34000000000000004524e-002
  +1.34999999999999998473e-002
  +1.36000000000000009770e-002
  +1.37000000000000003719e-002
  +1.37999999999999997669e-002
  +1.39000000000000008965e-002
  +1.40000000000000002914e-002
  +1.40999999999999996864e-002
  +1.42000000000000008160e-002
  +1.43000000000000002109e-002
  +1.43999999999999996059e-002
  +1.45000000000000007355e-002
  +1.46000000000000001305e-002
  +1.46999999999999995254e-002
  +1.48000000000000006550e-002
  +1.49000000000000000500e-002
  +1.49999999999999994449e-002
  +1.51000000000000005745e-002
  +1.51999999999999999695e-002
  +1.53000000000000010991e-002
  +1.54000000000000004940e-002
  +1.54999999999999998890e-002
  +1.56000000000000010186e-002
  +1.56999999999999986788e-002
  +1.58000000000000015432e-002
  +1.59000000000000009381e-002
  +1.60000000000000003331e-002
  +1.60999999999999997280e-002
  +1.61999999999999991229e-002
  +1.63000000000000019873e-002
  +1.64000000000000013822e-002
  +1.65000000000000007772e-002
  +1.66000000000000001721e-002
  +1.66999999999999995670e-002
  +1.67999999999999989619e-002
  +1.69000000000000018263e-002
  +1.70000000000000012212e-002
  +1.71000000000000006162e-002
  +1.72000000000000000111e-002
  +1.72999999999999994060e-002
  +1.73999999999999988010e-002
  +1.75000000000000016653e-002
  +1.76000000000000010603e-002
  +1.77000000000000004552e-002
  +1.77999999999999998501e-002
  +1.78999999999999992450e-002
  +1.80000000000000021094e-002
  +1.81000000000000015044e-002
  +1.82000000000000008993e-002
  +1.83000000000000002942e-002
  +1.83999999999999996891e-002
  +1.84999999999999990841e-002
  +1.86000000000000019484e-002
  +1.87000000000000013434e-002
  +1.88000000000000007383e-002
  +1.89000000000000001332e-002
  +1.89999999999999995282e-002
  +1.90999999999999989231e-002
  +1.92000000000000017875e-002
  +1.93000000000000011824e-002
  +1.94000000000000005773e-002
  +1.94999999999999999722e-002
  +1.95999999999999993672e-002
  +1.96999999999999987621e-002
  +1.98000000000000016265e-002
  +1.99000000000000010214e-002
  +2.00000000000000004163e-002
</indep>
<dep V1.It time>
  +0.00000000000000000000e+000
  -2.93946269055173005531e-004
  -5.30904707326612548650e-004
  -6.90369458299683823842e-004
  -7.59180483840130428466e-004
  -7.32781445632639245706e-004
  -6.15734438289596290768e-004
  -4.21301208754722611612e-004
  -1.70175048004165207442e-004
  +1.11630943006773688327e-004
  +3.95202888791285186689e-004
  +6.51555841832281135671e-004
  +8.54505107480468839055e-004
  +9.83197234662374708672e-004
  +1.02414154201825677998e-003
  +9.72507406186311424215e-004
  +8.32634651150709588843e-004
  +6.17552562374382792328e-004
  +3.47714404673992447722e-004
  +4.89919205377619827843e-005
  -2.49864178807516134836e-004
  -5.20043440955994138927e-004
  -7.35500280730458995578e-004
  -8.75507521532451751453e-004
  -9.26682836016409056633e-004
  -8.84335455009847273486e-004
  -7.52863888653272812779e-004
  -5.45427730402349192525e-004
  -2.82505711532123591784e-004
  +1.00063136520719581936e-005
  +3.03251030018215493762e-004
  +5.68359901191094456924e-004
  +7.79234858981482257298e-004
  +9.15100652840666255010e-004
  +9.62537141474170991270e-004
  +9.16790579053402133851e-004
  +7.82241049694740869791e-004
  +5.71970133426639515753e-004
  +3.06479737766523075825e-004
  +1.16847342487379315571e-005
  -2.83624502228939920963e-004
  -5.50600958655805394065e-004
  -7.63165330218637809508e-004
  -9.00559386979324773097e-004
  -9.49378425030152637079e-004
  -9.04883856561194683914e-004
  -7.71467457825317551832e-004
  -5.62221835198905379657e-004
  -2.97659158753634455700e-004
  -3.70358591853687145335e-006
  +2.90846106227453794595e-004
  +5.57135302105357384066e-004
  +7.69077817849570031898e-004
  +9.05909199130433811370e-004
  +9.54219110007218577867e-004
  +9.09263866622359809982e-004
  +7.75430634158169574364e-004
  +5.65807846743613795243e-004
  +3.00903899264471253339e-004
  +6.63953323811404218295e-006
  -2.88189565085091730940e-004
  -5.54731576808923146880e-004
  -7.66902848597792699721e-004
  -9.03941215828351187292e-004
  -9.52438414361010785188e-004
  -9.07652634971629099052e-004
  -7.73972739072144029319e-004
  -5.64488695595549510274e-004
  -2.99710288168502042658e-004
  -5.55951488653131823759e-006
  +2.89166801006988537139e-004
  +5.55615811827379923495e-004
  +7.67702933357620131115e-004
  +9.04665158682395808762e-004
  +9.53093461528807593501e-004
  +9.08245343069570706084e-004
  +7.74509040741145965078e-004
  +5.64973958883116761202e-004
  +3.00149370259554938278e-004
  +5.95681072081561586599e-006
  -2.88807314744262474005e-004
  -5.55290536901399374783e-004
  -7.67408613967869731275e-004
  -9.04398848874087934839e-004
  -9.52852495705725074590e-004
  -9.08027309313084313169e-004
  -7.74311756668413656360e-004
  -5.64795449802777045113e-004
  -2.99987849406283576658e-004
  -5.81066137092941406117e-006
  +2.88939555455235781625e-004
  +5.55410192621055387278e-004
  +7.67516882375838616417e-004
  +9.04496813670074752828e-004
  +9.52941137456653816068e-004
  +9.08107515267975867745e-004
  +7.74384329639190216107e-004
  +5.64861116199923542040e-004
  +3.00047266509763485738e-004
  +5.86442390913712059003e-006
  -2.88890909352585020190e-004
  -5.55366176036614059459e-004
  -7.67477054730866673285e-004
  -9.04460776314508171393e-004
  -9.52908529678891491436e-004
  -9.08078010684356925000e-004
  -7.74357632927111911268e-004
  -5.64836960141835270864e-004
  -3.00025409318481765981e-004
  -5.84464680771951465793e-006
  +2.88908804320670063812e-004
  +5.55382367988918623260e-004
  +7.67491705738798809210e-004
  +9.04474033025586877411e-004
  +9.52920524784578752350e-004
  +9.08088864248232153532e-004
  +7.74367453586625054812e-004
  +5.64845846195702501469e-004
  +3.00033449710606974978e-004
  +5.85192201743489251426e-006
  -2.88902221473014955613e-004
  -5.55376411613097017116e-004
  -7.67486316215176063611e-004
  -9.04469156408368437847e-004
  -9.52916112261851448555e-004
  -9.08084871653375212512e-004
  -7.74363840956238265976e-004
  -5.64842577369595788203e-004
  -3.00030491969846926145e-004
  -5.84924575688139390445e-006
  +2.88904643041085912054e-004
  +5.55378602727068051460e-004
  +7.67488298806749723660e-004
  +9.04470950322059752229e-004
  +9.52917735453620812040e-004
  +9.08086340370368289530e-004
  +7.74365169899401354497e-004
  +5.64843779840824280689e-004
  +3.00031580005141870413e-004
  +5.85023024678948313501e-006
  -2.88903752242416979497e-004
  -5.55377796703309138324e-004
  -7.67487569490093394370e-004
  -9.04470290412496776868e-004
  -9.52917138345869547782e-004
  -9.08085800087748648037e-004
  -7.74364681034019801745e-004
  -5.64843337499443959304e-004
  -3.00031179760190539266e-004
  -5.84986809207549220721e-006
  +2.88904079931844763943e-004
  +5.55378093207424886057e-004
  +7.67487837776708540366e-004
  +9.04470533167002510057e-004
  +9.52917357998083825246e-004
  +9.08085998836255341160e-004
  +7.74364860868167700393e-004
  +5.64843500219264758357e-004
  +3.00031326994399793074e-004
  +5.85000131440214519903e-006
  -2.88903959387927196985e-004
  -5.55377984135340730699e-004
  -7.67487739084720581653e-004
  -9.04470443867267802525e-004
  -9.52917277196762895972e-004
  -9.08085925724576954396e-004
  -7.74364794714330626282e-004
  -5.64843440361106506262e-004
  -3.00031272832787152503e-004
  -5.84995230719735423018e-006
  +2.88904003731249017436e-004
  +5.55378024258628344087e-004
  +7.67487775389582909877e-004
  +9.04470476717088539380e-004
  +9.52917306920357683707e-004
  +9.08085952619457482775e-004
  +7.74364819049699090563e-004
  +5.64843462380540742296e-004
  +3.00031292756696246239e-004
  +5.84997033500939906466e-006
  -2.88903987419107709592e-004
  -5.55378009498862668797e-004
  -7.67487762034469887459e-004
  -9.04470464632944957765e-004
  -9.52917295986228430650e-004
  -9.08085942725901889942e-004
  -7.74364810097682662073e-004
  -5.64843454280462733789e-004
  -3.00031285427479639787e-004
  -5.84996370329415087212e-006
  +2.88903993419687516939e-004
  +5.55378014928390372970e-004
  +7.67487766947288195009e-004
  +9.04470469078223087735e-004
  +9.52917300008460522315e-004
  +9.08085946365348056254e-004
  +7.74364813390776432836e-004
  +5.64843457260166348713e-004
  +3.00031288123602803922e-004
  +5.84996614283403787373e-006
  -2.88903991212312229609e-004
</dep>
<dep Vin.Vt time>
  +0.00000000000000000000e+000
  +3.09016994374947395752e-001
  +5.87785252292473137103e-001
  +8.09016994374947451263e-001
  +9.51056516295153531182e-001
  +1.00000000000000000000e+000
  +9.51056516295153531182e-001
  +8.09016994374947451263e-001
  +5.87785252292473248126e-001
  +3.09016994374947506774e-001
  +1.22460635382237725821e-016
  -3.09016994374947284729e-001
  -5.87785252292473359148e-001
  -8.09016994374947340241e-001
  -9.51056516295153531182e-001
  -1.00000000000000000000e+000
  -9.51056516295153642204e-001
  -8.09016994374947562285e-001
  -5.87785252292473359148e-001
  -3.09016994374947617796e-001
  -2.44921270764475451642e-016
  +3.09016994374947173707e-001
  +5.87785252292472915059e-001
  +8.09016994374947229218e-001
  +9.51056516295153753227e-001
  +1.00000000000000000000e+000
  +9.51056516295153642204e-001
  +8.09016994374947673307e-001
  +5.87785252292473359148e-001
  +3.09016994374947784330e-001
  +3.67381906146713177463e-016
  -3.09016994374947062685e-001
  -5.87785252292472804037e-001
  -8.09016994374947229218e-001
  -9.51056516295153420160e-001
  -1.00000000000000000000e+000
  -9.51056516295153753227e-001
  -8.09016994374947673307e-001
  -5.87785252292473470170e-001
  -3.09016994374947895352e-001
  -4.89842541528950903285e-016
  +3.09016994374948616997e-001
  +5.87785252292472693014e-001
  +8.09016994374947118196e-001
  +9.51056516295153420160e-001
  +1.00000000000000000000e+000
  +9.51056516295153753227e-001
  +8.09016994374947784330e-001
  +5.87785252292472137903e-001
  +3.09016994374948006374e-001
  +6.12303176911188629106e-016
  -3.09016994374948505975e-001
  -5.87785252292472581992e-001
  -8.09016994374948117397e-001
  -9.51056516295153420160e-001
  -1.00000000000000000000e+000
  -9.51056516295153753227e-001
  -8.09016994374946785129e-001
  -5.87785252292473692215e-001
  -3.09016994374949782731e-001
  -7.34763812293426354927e-016
  +3.09016994374948394952e-001
  +5.87785252292472470970e-001
  +8.09016994374948006374e-001
  +9.51056516295153309137e-001
  +1.00000000000000000000e+000
  +9.51056516295153864249e-001
  +8.09016994374946896151e-001
  +5.87785252292473803237e-001
  +3.09016994374949893754e-001
  +8.57224447675664080748e-016
  -3.09016994374948283930e-001
  -5.87785252292472470970e-001
  -8.09016994374947895352e-001
  -9.51056516295153309137e-001
  -1.00000000000000000000e+000
  -9.51056516295153864249e-001
  -8.09016994374946896151e-001
  -5.87785252292473914260e-001
  -3.09016994374946674107e-001
  -9.79685083057901806569e-016
  +3.09016994374944786728e-001
  +5.87785252292475135505e-001
  +8.09016994374947895352e-001
  +9.51056516295153309137e-001
  +1.00000000000000000000e+000
  +9.51056516295153864249e-001
  +8.09016994374949116597e-001
  +5.87785252292474025282e-001
  +3.09016994374950171309e-001
  -2.45056796036036139697e-015
  -3.09016994374948061886e-001
  -5.87785252292472248925e-001
  -8.09016994374947784330e-001
  -9.51056516295153198115e-001
  -1.00000000000000000000e+000
  -9.51056516295152865048e-001
  -8.09016994374947118196e-001
  -5.87785252292474136304e-001
  -3.09016994374946896151e-001
  -1.22460635382237725821e-015
  +3.09016994374944564683e-001
  +5.87785252292475024483e-001
  +8.09016994374945674906e-001
  +9.51056516295153198115e-001
  +1.00000000000000000000e+000
  +9.51056516295152865048e-001
  +8.09016994374949227620e-001
  +5.87785252292474247326e-001
  +3.09016994374947007174e-001
  +4.89978066800511591339e-015
  -3.09016994374944453661e-001
  -5.87785252292472026880e-001
  -8.09016994374947673307e-001
  -9.51056516295154197316e-001
  -1.00000000000000000000e+000
  -9.51056516295153975271e-001
  -8.09016994374947229218e-001
  -5.87785252292477133906e-001
  -3.09016994374943732016e-001
  -1.46952762458685270985e-015
  +3.09016994374947728819e-001
  +5.87785252292474802438e-001
  +8.09016994374945452861e-001
  +9.51056516295153087093e-001
  +1.00000000000000000000e+000
  +9.51056516295152976070e-001
  +8.09016994374949338642e-001
  +5.87785252292474358349e-001
  +3.09016994374947229218e-001
  -1.96072541883141049368e-015
  -3.09016994374944231616e-001
  -5.87785252292471804836e-001
  -8.09016994374947562285e-001
  -9.51056516295154197316e-001
  -1.00000000000000000000e+000
  -9.51056516295154086293e-001
  -8.09016994374947340241e-001
  -5.87785252292477355951e-001
  -3.09016994374943954060e-001
  -1.71444889535132816150e-015
  +3.09016994374947451263e-001
  +5.87785252292474580393e-001
  +8.09016994374945341839e-001
  +9.51056516295152976070e-001
  +1.00000000000000000000e+000
  +9.51056516295152976070e-001
  +8.09016994374949560687e-001
  +5.87785252292474580393e-001
  +3.09016994374947451263e-001
  +5.38962320953406681667e-015
  -3.09016994374950726421e-001
  -5.87785252292471582791e-001
  -8.09016994374947340241e-001
  -9.51056516295154086293e-001
  -1.00000000000000000000e+000
  -9.51056516295154197316e-001
  -8.09016994374951670110e-001
  -5.87785252292471804836e-001
  -3.09016994374944231616e-001
  -1.95937016611580361314e-015
  +3.09016994374947229218e-001
  +5.87785252292468696211e-001
  +8.09016994374949338642e-001
  +9.51056516295155196516e-001
  +1.00000000000000000000e+000
  +9.51056516295153087093e-001
  +8.09016994374949671709e-001
  +5.87785252292474802438e-001
  +3.09016994374940956458e-001
  -1.47088287730245959040e-015
  -3.09016994374950504376e-001
  -5.87785252292471471769e-001
  -8.09016994374943010371e-001
  -9.51056516295151865847e-001
  -1.00000000000000000000e+000
  -9.51056516295154197316e-001
  -8.09016994374947673307e-001
  -5.87785252292477800040e-001
  -3.09016994374951226021e-001
  +4.90113592072072279393e-015
  +3.09016994374947007174e-001
  +5.87785252292474247326e-001
  +8.09016994374945008772e-001
  +9.51056516295152865048e-001
  +1.00000000000000000000e+000
  +9.51056516295153198115e-001
  +8.09016994374945674906e-001
  +5.87785252292475024483e-001
  +3.09016994374947950863e-001
  +5.87946575106301771996e-015
  -3.09016994374943509971e-001
  -5.87785252292477022884e-001
  -8.09016994374947118196e-001
  -9.51056516295153975271e-001
  -1.00000000000000000000e+000
  -9.51056516295154308338e-001
  -8.09016994374952003177e-001
  -5.87785252292472248925e-001
  -3.09016994374944675705e-001
  -2.44921270764475451642e-015
</dep>
<dep Vout.Vt time>
  +0.00000000000000000000e+000
  +1.50707253197744049655e-002
  +5.68805449658606257501e-002
  +1.18647536075263626554e-001
  +1.91876032455023132206e-001
  +2.67218554367360694446e-001
  +3.35322078005557244751e-001
  +3.87715785620224795416e-001
  +4.17610204288308084486e-001
  +4.20647937381721181982e-001
  +3.95202888791285289471e-001
  +3.42538847457333872626e-001
  +2.66719855187995458223e-001
  +1.74180240287427290369e-001
  +7.30850257231032002236e-002
  -2.74925938136886260921e-002
  -1.18421865144444041218e-001
  -1.91464432000564704905e-001
  -2.40070847618480937014e-001
  -2.60025073837185594083e-001
  -2.49864178807516379432e-001
  -2.11026446581046883688e-001
  -1.47715028437986034549e-001
  -6.64905271575044337640e-002
  +2.43736802787447338903e-002
  +1.15664544990152814985e-001
  +1.98192627641880725342e-001
  +2.63589263972598519814e-001
  +3.05279540760349743511e-001
  +3.19023308027019725230e-001
  +3.03251030018215850248e-001
  +2.59342906816147356075e-001
  +1.91449606689009454996e-001
  +1.06083658465719030128e-001
  +1.14806251790175693761e-002
  -8.32094209465979173235e-002
  -1.68815466600412883436e-001
  -2.37046860948308152350e-001
