<Qucs Dataset 0.0.19>
<indep time 321>
  +0.00000000000000000000e+000
  +5.00000000000000023961e-005
  +1.00000000000000004792e-004
  +1.50000000000000013965e-004
  +2.00000000000000009584e-004
  +2.50000000000000005204e-004
  +3.00000000000000027929e-004
  +3.49999999999999996444e-004
  +4.00000000000000019169e-004
  +4.49999999999999987683e-004
  +5.00000000000000010408e-004
  +5.50000000000000033133e-004
  +6.00000000000000055858e-004
  +6.49999999999999970163e-004
  +6.99999999999999992888e-004
  +7.50000000000000015613e-004
  +8.00000000000000038337e-004
  +8.50000000000000061062e-004
  +8.99999999999999975367e-004
  +9.49999999999999998092e-004
  +1.00000000000000002082e-003
  +1.04999999999999993512e-003
  +1.10000000000000006627e-003
  +1.14999999999999998057e-003
  +1.20000000000000011172e-003
  +1.25000000000000002602e-003
  +1.29999999999999994033e-003
  +1.35000000000000007147e-003
  +1.39999999999999998578e-003
  +1.45000000000000011692e-003
  +1.50000000000000003123e-003
  +1.54999999999999994553e-003
  +1.60000000000000007667e-003
  +1.64999999999999999098e-003
  +1.70000000000000012212e-003
  +1.75000000000000003643e-003
  +1.79999999999999995073e-003
  +1.85000000000000008188e-003
  +1.89999999999999999618e-003
  +1.95000000000000012733e-003
  +2.00000000000000004163e-003
  +2.05000000000000017278e-003
  +2.09999999999999987024e-003
  +2.15000000000000000139e-003
  +2.20000000000000013253e-003
  +2.25000000000000026368e-003
  +2.29999999999999996114e-003
  +2.35000000000000009229e-003
  +2.40000000000000022343e-003
  +2.44999999999999992090e-003
  +2.50000000000000005204e-003
  +2.55000000000000018319e-003
  +2.59999999999999988065e-003
  +2.65000000000000001180e-003
  +2.70000000000000014294e-003
  +2.74999999999999984041e-003
  +2.79999999999999997155e-003
  +2.85000000000000010270e-003
  +2.90000000000000023384e-003
  +2.94999999999999993130e-003
  +3.00000000000000006245e-003
  +3.05000000000000019360e-003
  +3.09999999999999989106e-003
  +3.15000000000000002220e-003
  +3.20000000000000015335e-003
  +3.25000000000000028449e-003
  +3.29999999999999998196e-003
  +3.35000000000000011310e-003
  +3.40000000000000024425e-003
  +3.44999999999999994171e-003
  +3.50000000000000007286e-003
  +3.55000000000000020400e-003
  +3.59999999999999990147e-003
  +3.65000000000000003261e-003
  +3.70000000000000016376e-003
  +3.74999999999999986122e-003
  +3.79999999999999999237e-003
  +3.85000000000000012351e-003
  +3.90000000000000025466e-003
  +3.95000000000000038580e-003
  +4.00000000000000008327e-003
  +4.04999999999999978073e-003
  +4.10000000000000034556e-003
  +4.15000000000000004302e-003
  +4.19999999999999974049e-003
  +4.25000000000000030531e-003
  +4.30000000000000000278e-003
  +4.34999999999999970024e-003
  +4.40000000000000026507e-003
  +4.44999999999999996253e-003
  +4.50000000000000052736e-003
  +4.55000000000000022482e-003
  +4.59999999999999992228e-003
  +4.65000000000000048711e-003
  +4.70000000000000018457e-003
  +4.74999999999999988204e-003
  +4.80000000000000044686e-003
  +4.85000000000000014433e-003
  +4.89999999999999984179e-003
  +4.95000000000000040662e-003
  +5.00000000000000010408e-003
  +5.04999999999999980155e-003
  +5.10000000000000036637e-003
  +5.15000000000000006384e-003
  +5.19999999999999976130e-003
  +5.25000000000000032613e-003
  +5.30000000000000002359e-003
  +5.34999999999999972106e-003
  +5.40000000000000028588e-003
  +5.44999999999999998335e-003
  +5.49999999999999968081e-003
  +5.55000000000000024564e-003
  +5.59999999999999994310e-003
  +5.65000000000000050793e-003
  +5.70000000000000020539e-003
  +5.74999999999999990286e-003
  +5.80000000000000046768e-003
  +5.85000000000000016515e-003
  +5.89999999999999986261e-003
  +5.95000000000000042744e-003
  +6.00000000000000012490e-003
  +6.04999999999999982236e-003
  +6.10000000000000038719e-003
  +6.15000000000000008465e-003
  +6.19999999999999978212e-003
  +6.25000000000000034694e-003
  +6.30000000000000004441e-003
  +6.34999999999999974187e-003
  +6.40000000000000030670e-003
  +6.45000000000000000416e-003
  +6.50000000000000056899e-003
  +6.55000000000000026645e-003
  +6.59999999999999996392e-003
  +6.65000000000000052874e-003
  +6.70000000000000022621e-003
  +6.74999999999999992367e-003
  +6.80000000000000048850e-003
  +6.85000000000000018596e-003
  +6.89999999999999988343e-003
  +6.95000000000000044825e-003
  +7.00000000000000014572e-003
  +7.04999999999999984318e-003
  +7.10000000000000040801e-003
  +7.15000000000000010547e-003
  +7.19999999999999980294e-003
  +7.25000000000000036776e-003
  +7.30000000000000006523e-003
  +7.34999999999999976269e-003
  +7.40000000000000032752e-003
  +7.45000000000000002498e-003
  +7.49999999999999972244e-003
  +7.55000000000000028727e-003
  +7.59999999999999998473e-003
  +7.65000000000000054956e-003
  +7.70000000000000024702e-003
  +7.74999999999999994449e-003
  +7.80000000000000050931e-003
  +7.84999999999999933942e-003
  +7.90000000000000077161e-003
  +7.95000000000000046907e-003
  +8.00000000000000016653e-003
  +8.04999999999999986400e-003
  +8.09999999999999956146e-003
  +8.15000000000000099365e-003
  +8.20000000000000069111e-003
  +8.25000000000000038858e-003
  +8.30000000000000008604e-003
  +8.34999999999999978351e-003
  +8.39999999999999948097e-003
  +8.45000000000000091316e-003
  +8.50000000000000061062e-003
  +8.55000000000000030809e-003
  +8.60000000000000000555e-003
  +8.64999999999999970302e-003
  +8.69999999999999940048e-003
  +8.75000000000000083267e-003
  +8.80000000000000053013e-003
  +8.85000000000000022760e-003
  +8.89999999999999992506e-003
  +8.94999999999999962252e-003
  +9.00000000000000105471e-003
  +9.05000000000000075218e-003
  +9.10000000000000044964e-003
  +9.15000000000000014710e-003
  +9.19999999999999984457e-003
  +9.24999999999999954203e-003
  +9.30000000000000097422e-003
  +9.35000000000000067168e-003
  +9.40000000000000036915e-003
  +9.45000000000000006661e-003
  +9.49999999999999976408e-003
  +9.54999999999999946154e-003
  +9.60000000000000089373e-003
  +9.65000000000000059119e-003
  +9.70000000000000028866e-003
  +9.74999999999999998612e-003
  +9.79999999999999968359e-003
  +9.84999999999999938105e-003
  +9.90000000000000081324e-003
  +9.95000000000000051070e-003
  +1.00000000000000002082e-002
  +1.00499999999999999056e-002
  +1.00999999999999996031e-002
  +1.01500000000000010353e-002
  +1.02000000000000007327e-002
  +1.02500000000000004302e-002
  +1.03000000000000001277e-002
  +1.03499999999999998251e-002
  +1.03999999999999995226e-002
  +1.04500000000000009548e-002
  +1.05000000000000006523e-002
  +1.05500000000000003497e-002
  +1.06000000000000000472e-002
  +1.06499999999999997446e-002
  +1.06999999999999994421e-002
  +1.07500000000000008743e-002
  +1.08000000000000005718e-002
  +1.08500000000000002692e-002
  +1.08999999999999999667e-002
  +1.09499999999999996642e-002
  +1.09999999999999993616e-002
  +1.10500000000000007938e-002
  +1.11000000000000004913e-002
  +1.11500000000000001887e-002
  +1.11999999999999998862e-002
  +1.12499999999999995837e-002
  +1.13000000000000010159e-002
  +1.13500000000000007133e-002
  +1.14000000000000004108e-002
  +1.14500000000000001082e-002
  +1.14999999999999998057e-002
  +1.15499999999999995032e-002
  +1.16000000000000009354e-002
  +1.16500000000000006328e-002
  +1.17000000000000003303e-002
  +1.17500000000000000278e-002
  +1.17999999999999997252e-002
  +1.18499999999999994227e-002
  +1.19000000000000008549e-002
  +1.19500000000000005523e-002
  +1.20000000000000002498e-002
  +1.20499999999999999473e-002
  +1.20999999999999996447e-002
  +1.21500000000000010769e-002
  +1.22000000000000007744e-002
  +1.22500000000000004718e-002
  +1.23000000000000001693e-002
  +1.23499999999999998668e-002
  +1.23999999999999995642e-002
  +1.24500000000000009964e-002
  +1.25000000000000006939e-002
  +1.25500000000000003914e-002
  +1.26000000000000000888e-002
  +1.26499999999999997863e-002
  +1.26999999999999994837e-002
  +1.27500000000000009159e-002
  +1.28000000000000006134e-002
  +1.28500000000000003109e-002
  +1.29000000000000000083e-002
  +1.29499999999999997058e-002
  +1.30000000000000011380e-002
  +1.30500000000000008354e-002
  +1.31000000000000005329e-002
  +1.31500000000000002304e-002
  +1.31999999999999999278e-002
  +1.32499999999999996253e-002
  +1.33000000000000010575e-002
  +1.33500000000000007550e-002
  +1.34000000000000004524e-002
  +1.34500000000000001499e-002
  +1.34999999999999998473e-002
  +1.35499999999999995448e-002
  +1.36000000000000009770e-002
  +1.36500000000000006745e-002
  +1.37000000000000003719e-002
  +1.37500000000000000694e-002
  +1.37999999999999997669e-002
  +1.38499999999999994643e-002
  +1.39000000000000008965e-002
  +1.39500000000000005940e-002
  +1.40000000000000002914e-002
  +1.40499999999999999889e-002
  +1.40999999999999996864e-002
  +1.41500000000000011185e-002
  +1.42000000000000008160e-002
  +1.42500000000000005135e-002
  +1.43000000000000002109e-002
  +1.43499999999999999084e-002
  +1.43999999999999996059e-002
  +1.44500000000000010381e-002
  +1.45000000000000007355e-002
  +1.45500000000000004330e-002
  +1.46000000000000001305e-002
  +1.46499999999999998279e-002
  +1.46999999999999995254e-002
  +1.47500000000000009576e-002
  +1.48000000000000006550e-002
  +1.48500000000000003525e-002
  +1.49000000000000000500e-002
  +1.49499999999999997474e-002
  +1.49999999999999994449e-002
  +1.50500000000000008771e-002
  +1.51000000000000005745e-002
  +1.51500000000000002720e-002
  +1.51999999999999999695e-002
  +1.52499999999999996669e-002
  +1.53000000000000010991e-002
  +1.53500000000000007966e-002
  +1.54000000000000004940e-002
  +1.54500000000000001915e-002
  +1.54999999999999998890e-002
  +1.55499999999999995864e-002
  +1.56000000000000010186e-002
  +1.56500000000000007161e-002
  +1.56999999999999986788e-002
  +1.57500000000000001110e-002
  +1.58000000000000015432e-002
  +1.58499999999999995060e-002
  +1.59000000000000009381e-002
  +1.59499999999999989009e-002
  +1.60000000000000003331e-002
</indep>
<dep V1.It time>
  +0.00000000000000000000e+000
  -9.51229097796000774845e-003
  -9.04835365820168269213e-003
  -8.60703737672870693165e-003
  -8.18724545953791391084e-003
  -7.78792809660143036526e-003
  -7.40808668038360745162e-003
  -7.04677130853659846460e-003
  -6.70307840839724951298e-003
  -6.37614847734462118073e-003
  +3.82136203801472203526e-003
  +3.63498913856784809651e-003
  +3.45770455831929382148e-003
  +3.28906644748117992644e-003
  +3.12865310308779341272e-003
  +2.97606338934169184496e-003
  +2.83091573451804993586e-003
  +2.69284717679168670787e-003
  +2.56151245660071790258e-003
  +2.43658315327718085624e-003
  -7.60827873280682520640e-003
  -7.23721495159622765780e-003
  -6.88423896657967132606e-003
  -6.54847337975147242295e-003
  -6.22908411713941467108e-003
  -5.92527245485589999785e-003
  -5.63627862524308277659e-003
  -5.36137991685727878510e-003
  -5.09988886712300741599e-003
  -4.85115154313686767346e-003
  +5.27027773383758647852e-003
  +5.01323931484441709383e-003
  +4.76873508124520811835e-003
  +4.53615573622471318638e-003
  +4.31491968262397163070e-003
  +4.10447368876962724593e-003
  +3.90429150504081022566e-003
  +3.71387254790839444266e-003
  +3.53274064815593639988e-003
  +3.36044286015198473763e-003
  -6.73188366535083966558e-003
  -6.40356262287949517392e-003
  -6.09124659157355557992e-003
  -5.79415784504283288420e-003
  -5.51155902631068461001e-003
  -5.24274341723291771589e-003
  -4.98703876847307603359e-003
  -4.74380561835313629970e-003
  -4.51243569369903698568e-003
  -4.29235038868182577215e-003
  +5.79777062489228011549e-003
  +5.51500568714753929694e-003
  +5.24602924556985105581e-003
  +4.99017125394995205573e-003
  +4.74679190261423702979e-003
  +4.51528258652224637193e-003
  +4.29506438336230839115e-003
  +4.08558660587312553331e-003
  +3.88632542477113139892e-003
  +3.69678255884010788929e-003
  -6.41766857474000262246e-003
  -6.10466725429663608499e-003
  -5.80692591993611523932e-003
  -5.52370624556031489250e-003
  -5.25429997005675587796e-003
  -4.99803337614632397362e-003
  -4.75426560558604282408e-003
  -4.52238705654387472543e-003
  -4.30181785913800671106e-003
  -4.09200642532821581843e-003
  +6.09646396295240346197e-003
  +5.79913284053303577925e-003
  +5.51629435746344744251e-003
  +5.24724730492777142327e-003
  +4.99132252466174229644e-003
  +4.74788000211067220957e-003
  +4.51631093824578916385e-003
  +4.29603622708472996511e-003
  +4.08650500746810668717e-003
  +3.88719328547052671644e-003
  -6.19290182294779043004e-003
  -5.89086552822164991744e-003
  -5.60355678900650768653e-003
  -5.33026064458477430441e-003
  -5.07029367400175547120e-003
  -4.82300578804525491988e-003
  -4.58777860359296883047e-003
  -4.36402389724604034688e-003
  -4.15118213438186219738e-003
  -3.94872106994780328049e-003
  +6.19289766454883365554e-003
  +5.89086213891455885705e-003
  +5.60354406137668001331e-003
  +5.33023877443047650743e-003
  +5.07026358341188497503e-003
  +4.82296833091112788633e-003
  +4.58773457006723169721e-003
  +4.36397401792888023353e-003
  +4.15112708425048257399e-003
  +3.94866147204424745160e-003
  -6.15509970002483565443e-003
  -5.85490702551262794107e-003
  -5.56934171131973076996e-003
  -5.29770406533704510399e-003
  -5.03931520431668590609e-003
  -4.79352893541471793137e-003
  -4.55973058303145266368e-003
  -4.33733545159743164726e-003
  -4.12578736333512382378e-003
  -3.92455726733946779622e-003
  -3.73314191649870693798e-003
  +5.96121670962052822157e-003
  +5.67047337925476787474e-003
  +5.39390666380267728292e-003
  +5.13082897174955282482e-003
  +4.88058240125076401444e-003
  +4.64254113839157860760e-003
  +4.41610989215850124889e-003
  +4.20072240574193359053e-003
  +3.99584004044728578059e-003
  -6.08774142098776182425e-003
  -5.79083382292146058024e-003
  -5.50840356190787205221e-003
  -5.23974797562601433271e-003
  -4.98419524632064212671e-003
  -4.74110632209887635641e-003
  -4.50987331887517470946e-003
  -4.28991800025656580542e-003
  -4.08069033156686217234e-003
  -3.88166710439392589893e-003
  +6.25975515269799279855e-003
  +5.95446009143106667200e-003
  +5.66404556629343525209e-003
  +5.38779209951945493168e-003
  +5.12501239050597127977e-003
  +4.87504928135263498890e-003
  +4.63727766583419027946e-003
  +4.41110292613862680494e-003
  +4.19595944585054829445e-003
  +3.99130919546108846319e-003
  -6.09534024617516562855e-003
  -5.79806224793035819565e-003
  -5.51527989691189251403e-003
  -5.24628937058038962576e-003
  -4.99041801582467831055e-003
  -4.74702598608516164458e-003
  -4.51550464131690500874e-003
  -4.29527502598944354445e-003
  -4.08578642131746539584e-003
  -3.88651496810188748499e-003
  -3.69696235673753039255e-003
  +5.99563175354227671787e-003
  +5.70320991609115594129e-003
  +5.42504653738671346191e-003
  +5.16045005634002251077e-003
  +4.90875877293538154245e-003
  +4.66934326033565955810e-003
  +4.44160479081848365290e-003
  +4.22497383848441290105e-003
  +4.01890865499276560974e-003
  -6.06579793489773338999e-003
  -5.76996055110264461502e-003
  -5.48854832027059671290e-003
  -5.22086111285256608550e-003
  -4.96622953268494298634e-003
  -4.72401683136070612429e-003
  -4.49361731593467782220e-003
  -4.27445483428807136705e-003
  -4.06598133436476046748e-003
  -3.86767549367640498317e-003
  +6.27306436526909889234e-003
  +5.96712019924200767762e-003
  +5.67608820767724966960e-003
  +5.39924738308765125860e-003
  +5.13590896356212398000e-003
  +4.88541439398045528042e-003
  +4.64713723904439796053e-003
  +4.42048161669202077650e-003
  +4.20488070791950451638e-003
  +3.99979533928361118827e-003
  -6.08726799850213464577e-003
  -5.79038369470795139665e-003
  -5.50797584110599910967e-003
  -5.23934154725086594084e-003
  -4.98380905084670929039e-003
  -4.74073935270253720570e-003
  -4.50952461881423509460e-003
  -4.28958666038008022692e-003
  -4.08037548794868212831e-003
  -3.88136793608389414276e-003
  -3.69206635510737051636e-003
  +6.00028897193452016856e-003
  +5.70763999038653886686e-003
  +5.42926054310807586212e-003
  +5.16445853182725695546e-003
  +4.91257174254059597596e-003
  +4.67297025949197242928e-003
  +4.44505488988612262186e-003
  +4.22825566543378380396e-003
  +4.02203041698118071018e-003
  -6.06282843100168673811e-003
  -5.76713587403288562017e-003
  -5.48586140821128408207e-003
  -5.21830524673541715913e-003
  -4.96379832114374371088e-003
  -4.72170419474863579945e-003
  -4.49141747112115786306e-003
  -4.27236228019707044157e-003
  -4.06399083821846248549e-003
  -3.86578207790977445082e-003
  +6.27486543545553981244e-003
  +5.96883342927824120383e-003
  +5.67771787902305972995e-003
  +5.40079757019314155020e-003
  +5.13738354312579144356e-003
  +4.88681705362191756703e-003
  +4.64847148652636644323e-003
  +4.42175078869249532643e-003
  +4.20608797837611694814e-003
  +4.00094372733098783274e-003
  +inf
  +nan
  +nan
  +nan
  +nan
  +nan
  +nan
  +nan
  +nan
  +nan
  +nan
  +nan
  +nan
  +nan
  +nan
  +nan
  +nan
  +nan
  +nan
  +nan
  +nan
  +nan
  +nan
  +nan
  +nan
  +nan
  +nan
  +nan
  +nan
  +nan
  +nan
  +nan
  +nan
  +nan
  +nan
  +nan
  +nan
  +nan
  +nan
  +nan
  +nan
  +nan
  +nan
  +nan
  +nan
  +nan
  +nan
  +nan
  +nan
  +nan
  +nan
  +nan
  +nan
  +nan
  +nan
  +nan
  +nan
  +nan
  +nan
  +nan
  +nan
  +nan
  +nan
  +nan
  +nan
  +nan
  +nan
  +nan
  +nan
  +nan
  +nan
  +nan
  +nan
  +nan
  +nan
  +nan
  +nan
  +nan
  +nan
  +nan
  +nan
  +nan
  +nan
  +nan
  +nan
  +nan
  +nan
  +nan
  +nan
  +nan
  +nan
  +nan
  +nan
  +nan
  +nan
  +nan
  +nan
  +nan
  +nan
  +nan
  +nan
</dep>
<dep Vin.Vt time>
  +0.00000000000000000000e+000
  +1.00000000000000000000e+001
  +1.00000000000000000000e+001
  +1.00000000000000000000e+001
  +1.00000000000000000000e+001
  +1.00000000000000000000e+001
  +1.00000000000000000000e+001
  +1.00000000000000000000e+001
  +1.00000000000000000000e+001
  +1.00000000000000000000e+001
  +0.00000000000000000000e+000
  +0.00000000000000000000e+000
  +0.00000000000000000000e+000
  +0.00000000000000000000e+000
  +0.00000000000000000000e+000
  +0.00000000000000000000e+000
  +0.00000000000000000000e+000
  +0.00000000000000000000e+000
  +0.00000000000000000000e+000
  +0.00000000000000000000e+000
  +1.00000000000000000000e+001
  +1.00000000000000000000e+001
  +1.00000000000000000000e+001
  +1.00000000000000000000e+001
  +1.00000000000000000000e+001
  +1.00000000000000000000e+001
  +1.00000000000000000000e+001
  +1.00000000000000000000e+001
  +1.00000000000000000000e+001
  +1.00000000000000000000e+001
  +0.00000000000000000000e+000
  +0.00000000000000000000e+000
  +0.00000000000000000000e+000
  +0.00000000000000000000e+000
  +0.00000000000000000000e+000
  +0.00000000000000000000e+000
  +0.00000000000000000000e+000
  +0.00000000000000000000e+000
  +0.00000000000000000000e+000
  +0.00000000000000000000e+000
  +1.00000000000000000000e+001
  +1.00000000000000000000e+001
  +1.00000000000000000000e+001
  +1.00000000000000000000e+001
  +1.00000000000000000000e+001
  +1.00000000000000000000e+001
  +1.00000000000000000000e+001
  +1.00000000000000000000e+001
  +1.00000000000000000000e+001
  +1.00000000000000000000e+001
  +0.00000000000000000000e+000
  +0.00000000000000000000e+000
  +0.00000000000000000000e+000
  +0.00000000000000000000e+000
  +0.00000000000000000000e+000
  +0.00000000000000000000e+000
  +0.00000000000000000000e+000
  +0.00000000000000000000e+000
  +0.00000000000000000000e+000
  +0.00000000000000000000e+000
  +1.00000000000000000000e+001
  +1.00000000000000000000e+001
  +1.00000000000000000000e+001
  +1.00000000000000000000e+001
  +1.00000000000000000000e+001
  +1.00000000000000000000e+001
  +1.00000000000000000000e+001
  +1.00000000000000000000e+001
  +1.00000000000000000000e+001
  +1.00000000000000000000e+001
  +0.00000000000000000000e+000
  +0.00000000000000000000e+000
  +0.00000000000000000000e+000
  +0.00000000000000000000e+000
  +0.00000000000000000000e+000
  +0.00000000000000000000e+000
  +0.00000000000000000000e+000
  +0.00000000000000000000e+000
