<Qucs Dataset 0.0.19>
<indep acfrequency 91>
  +1.00000000000000000000e+009
  +1.10000000000000000000e+009
  +1.20000000000000000000e+009
  +1.30000000000000000000e+009
  +1.40000000000000000000e+009
  +1.50000000000000000000e+009
  +1.60000000000000000000e+009
  +1.70000000000000000000e+009
  +1.80000000000000000000e+009
  +1.90000000000000000000e+009
  +2.00000000000000000000e+009
  +2.10000000000000000000e+009
  +2.20000000000000000000e+009
  +2.30000000000000000000e+009
  +2.40000000000000000000e+009
  +2.50000000000000000000e+009
  +2.60000000000000000000e+009
  +2.70000000000000000000e+009
  +2.80000000000000000000e+009
  +2.90000000000000000000e+009
  +3.00000000000000000000e+009
  +3.10000000000000000000e+009
  +3.20000000000000000000e+009
  +3.30000000000000000000e+009
  +3.40000000000000000000e+009
  +3.50000000000000000000e+009
  +3.60000000000000000000e+009
  +3.70000000000000000000e+009
  +3.80000000000000000000e+009
  +3.90000000000000000000e+009
  +4.00000000000000000000e+009
  +4.10000000000000000000e+009
  +4.20000000000000000000e+009
  +4.30000000000000000000e+009
  +4.40000000000000000000e+009
  +4.50000000000000000000e+009
  +4.60000000000000000000e+009
  +4.70000000000000000000e+009
  +4.80000000000000000000e+009
  +4.90000000000000000000e+009
  +5.00000000000000000000e+009
  +5.10000000000000000000e+009
  +5.20000000000000000000e+009
  +5.30000000000000000000e+009
  +5.40000000000000000000e+009
  +5.50000000000000000000e+009
  +5.60000000000000000000e+009
  +5.70000000000000000000e+009
  +5.80000000000000000000e+009
  +5.90000000000000000000e+009
  +6.00000000000000000000e+009
  +6.10000000000000000000e+009
  +6.20000000000000000000e+009
  +6.30000000000000000000e+009
  +6.40000000000000000000e+009
  +6.50000000000000000000e+009
  +6.60000000000000000000e+009
  +6.70000000000000000000e+009
  +6.80000000000000000000e+009
  +6.90000000000000000000e+009
  +7.00000000000000000000e+009
  +7.10000000000000000000e+009
  +7.20000000000000000000e+009
  +7.30000000000000000000e+009
  +7.40000000000000000000e+009
  +7.50000000000000000000e+009
  +7.60000000000000000000e+009
  +7.70000000000000000000e+009
  +7.80000000000000000000e+009
  +7.90000000000000000000e+009
  +8.00000000000000000000e+009
  +8.10000000000000000000e+009
  +8.20000000000000000000e+009
  +8.30000000000000000000e+009
  +8.40000000000000000000e+009
  +8.50000000000000000000e+009
  +8.60000000000000000000e+009
  +8.70000000000000000000e+009
  +8.80000000000000000000e+009
  +8.90000000000000000000e+009
  +9.00000000000000000000e+009
  +9.10000000000000000000e+009
  +9.20000000000000000000e+009
  +9.30000000000000000000e+009
  +9.40000000000000000000e+009
  +9.50000000000000000000e+009
  +9.60000000000000000000e+009
  +9.70000000000000000000e+009
  +9.80000000000000000000e+009
  +9.90000000000000000000e+009
  +1.00000000000000000000e+010
</indep>
<dep V1.i acfrequency>
  -9.99999999999974650486e-004-j1.59154943091891317839e-010
  -9.99999999999978987295e-004-j1.44686311901720044888e-010
  -9.99999999999982456741e-004-j1.32629119243243807458e-010
  -9.99999999999985058827e-004-j1.22426879301456150357e-010
  -9.99999999999987010391e-004-j1.13682102208495216480e-010
  -9.99999999999988745114e-004-j1.06103295394595702541e-010
  -9.99999999999990046157e-004-j9.94718394324336246128e-011
  -9.99999999999991347199e-004-j9.36205547599376324449e-011
  -9.99999999999992214561e-004-j8.84194128288300623101e-011
  -9.99999999999993081923e-004-j8.37657595220496075420e-011
  -9.99999999999993732444e-004-j7.95774715459471711089e-011
  -9.99999999999994382965e-004-j7.57880681389973495157e-011
  -9.99999999999994816646e-004-j7.23431559508611598172e-011
  -9.99999999999995250327e-004-j6.91978013443019952519e-011
  -9.99999999999995684008e-004-j6.63145596216227696836e-011
  -9.99999999999995900848e-004-j6.36619772367578842286e-011
  -9.99999999999996334529e-004-j6.12134396507287601875e-011
  -9.99999999999996551370e-004-j5.89462752192203000340e-011
  -9.99999999999996768210e-004-j5.68410511042481575397e-011
  -9.99999999999996985051e-004-j5.48810148592740951751e-011
  -9.99999999999997201891e-004-j5.30516476972983036348e-011
  -9.99999999999997418731e-004-j5.13403042231919100788e-011
  -9.99999999999997635572e-004-j4.97359197162171806603e-011
  -9.99999999999997635572e-004-j4.82287706339075734333e-011
  -9.99999999999997852412e-004-j4.68102773799691199528e-011
  -9.99999999999997852412e-004-j4.54728408833985829004e-011
  -9.99999999999998069253e-004-j4.42097064144152896490e-011
  -9.99999999999998069253e-004-j4.30148494842959566230e-011
  -9.99999999999998286093e-004-j4.18828797610250234908e-011
  -9.99999999999998286093e-004-j4.08089597671525864940e-011
  -9.99999999999998502934e-004-j3.97887357729737794249e-011
  -9.99999999999998502934e-004-j3.88182788029012485346e-011
  -9.99999999999998502934e-004-j3.78940340694988427789e-011
  -9.99999999999998719774e-004-j3.70127774632314282814e-011
  -9.99999999999998719774e-004-j3.61715779754307156179e-011
  -9.99999999999998719774e-004-j3.53677651315322562761e-011
  -9.99999999999998719774e-004-j3.45989006721511204106e-011
  -9.99999999999998936615e-004-j3.38627538493393976068e-011
  -9.99999999999998936615e-004-j3.31572798108114947017e-011
  -9.99999999999998936615e-004-j3.24806006309990182513e-011
  -9.99999999999998936615e-004-j3.18309886183790455119e-011
  -9.99999999999999153455e-004-j3.12068515866461187426e-011
  -9.99999999999999153455e-004-j3.06067198253644641043e-011
  -9.99999999999999153455e-004-j3.00292345456406138507e-011
  -9.99999999999999153455e-004-j2.94731376096102275652e-011
  -9.99999999999999153455e-004-j2.89372623803445880040e-011
  -9.99999999999999153455e-004-j2.84205255521241466245e-011
  -9.99999999999999153455e-004-j2.79219198406833748433e-011
  -9.99999999999999370295e-004-j2.74405074296371089798e-011
  -9.99999999999999370295e-004-j2.69754140833720759179e-011
  -9.99999999999999370295e-004-j2.65258238486492067474e-011
  -9.99999999999999370295e-004-j2.60909742773598734763e-011
  -9.99999999999999370295e-004-j2.56701521115960067382e-011
  -9.99999999999999370295e-004-j2.52626893796659134959e-011
  -9.99999999999999370295e-004-j2.48679598581086355666e-011
  -9.99999999999999370295e-004-j2.44853758602915829157e-011
  -9.99999999999999370295e-004-j2.41143853169538287219e-011
  -9.99999999999999370295e-004-j2.37544691181933239603e-011
  -9.99999999999999370295e-004-j2.34051386899845987505e-011
  -9.99999999999999587136e-004-j2.30659337814340985837e-011
  -9.99999999999999587136e-004-j2.27364204416993237619e-011
  -9.99999999999999587136e-004-j2.24161891678725755901e-011
  -9.99999999999999587136e-004-j2.21048532072076771362e-011
  -9.99999999999999587136e-004-j2.18020469988897627328e-011
  -9.99999999999999587136e-004-j2.15074247421480106232e-011
  -9.99999999999999587136e-004-j2.12206590789193679828e-011
  -9.99999999999999587136e-004-j2.09414398805125408260e-011
  -9.99999999999999587136e-004-j2.06694731288175711687e-011
  -9.99999999999999587136e-004-j2.04044798835763190964e-011
  -9.99999999999999587136e-004-j2.01461953280880102781e-011
  -9.99999999999999587136e-004-j1.98943678864869123307e-011
  -9.99999999999999587136e-004-j1.96487584064068259162e-011
  -9.99999999999999587136e-004-j1.94091394014506468855e-011
  -9.99999999999999587136e-004-j1.91752943484211202798e-011
  -9.99999999999999587136e-004-j1.89470170347494407765e-011
  -9.99999999999999587136e-004-j1.87241109519876835240e-011
  -9.99999999999999587136e-004-j1.85063887316157302966e-011
  -9.99999999999999587136e-004-j1.82936716197580801926e-011
  -9.99999999999999587136e-004-j1.80857889877153739648e-011
  -9.99999999999999803976e-004-j1.78825778754938558135e-011
  -9.99999999999999803976e-004-j1.76838825657661442939e-011
  -9.99999999999999803976e-004-j1.74895541859225624566e-011
  -9.99999999999999803976e-004-j1.72994503360755795923e-011
  -9.99999999999999803976e-004-j1.71134347410640131086e-011
  -9.99999999999999803976e-004-j1.69313769246697117281e-011
  -9.99999999999999803976e-004-j1.67531519044100333070e-011
  -9.99999999999999803976e-004-j1.65786399054057602756e-011
  -9.99999999999999803976e-004-j1.64077260919479692323e-011
  -9.99999999999999803976e-004-j1.62403003154995220504e-011
  -9.99999999999999803976e-004-j1.60762568779692256103e-011
  -9.99999999999999803976e-004-j1.59154943091895324495e-011
</dep>
<dep Vin.v acfrequency>
  +1.00000000000000000000e+000
  +1.00000000000000000000e+000
  +1.00000000000000000000e+000
  +1.00000000000000000000e+000
  +1.00000000000000000000e+000
  +1.00000000000000000000e+000
  +1.00000000000000000000e+000
  +1.00000000000000000000e+000
  +1.00000000000000000000e+000
  +1.00000000000000000000e+000
  +1.00000000000000000000e+000
  +1.00000000000000000000e+000
  +1.00000000000000000000e+000
  +1.00000000000000000000e+000
  +1.00000000000000000000e+000
  +1.00000000000000000000e+000
  +1.00000000000000000000e+000
  +1.00000000000000000000e+000
  +1.00000000000000000000e+000
  +1.00000000000000000000e+000
  +1.00000000000000000000e+000
  +1.00000000000000000000e+000
  +1.00000000000000000000e+000
  +1.00000000000000000000e+000
  +1.00000000000000000000e+000
  +1.00000000000000000000e+000
  +1.00000000000000000000e+000
  +1.00000000000000000000e+000
  +1.00000000000000000000e+000
  +1.00000000000000000000e+000
  +1.00000000000000000000e+000
  +1.00000000000000000000e+000
  +1.00000000000000000000e+000
  +1.00000000000000000000e+000
  +1.00000000000000000000e+000
  +1.00000000000000000000e+000
  +1.00000000000000000000e+000
  +1.00000000000000000000e+000
  +1.00000000000000000000e+000
  +1.00000000000000000000e+000
  +1.00000000000000000000e+000
  +1.00000000000000000000e+000
  +1.00000000000000000000e+000
  +1.00000000000000000000e+000
  +1.00000000000000000000e+000
  +1.00000000000000000000e+000
  +1.00000000000000000000e+000
  +1.00000000000000000000e+000
  +1.00000000000000000000e+000
  +1.00000000000000000000e+000
  +1.00000000000000000000e+000
  +1.00000000000000000000e+000
  +1.00000000000000000000e+000
  +1.00000000000000000000e+000
  +1.00000000000000000000e+000
  +1.00000000000000000000e+000
  +1.00000000000000000000e+000
  +1.00000000000000000000e+000
  +1.00000000000000000000e+000
  +1.00000000000000000000e+000
  +1.00000000000000000000e+000
  +1.00000000000000000000e+000
  +1.00000000000000000000e+000
  +1.00000000000000000000e+000
  +1.00000000000000000000e+000
  +1.00000000000000000000e+000
  +1.00000000000000000000e+000
  +1.00000000000000000000e+000
  +1.00000000000000000000e+000
  +1.00000000000000000000e+000
  +1.00000000000000000000e+000
  +1.00000000000000000000e+000
  +1.00000000000000000000e+000
  +1.00000000000000000000e+000
  +1.00000000000000000000e+000
  +1.00000000000000000000e+000
  +1.00000000000000000000e+000
  +1.00000000000000000000e+000
  +1.00000000000000000000e+000
  +1.00000000000000000000e+000
  +1.00000000000000000000e+000
  +1.00000000000000000000e+000
  +1.00000000000000000000e+000
  +1.00000000000000000000e+000
  +1.00000000000000000000e+000
  +1.00000000000000000000e+000
  +1.00000000000000000000e+000
  +1.00000000000000000000e+000
  +1.00000000000000000000e+000
  +1.00000000000000000000e+000
  +1.00000000000000000000e+000
</dep>
<dep Vout.v acfrequency>
  +2.53302959105838073398e-014-j1.59154943091891325283e-007
  +2.09341288517222492549e-014-j1.44686311901720033928e-007
  +1.75904832712388906935e-014-j1.32629119243243798979e-007
  +1.49883407754935310687e-014-j1.22426879301456140224e-007
  +1.29236203625429198389e-014-j1.13682102208495212344e-007
  +1.12579092935929601578e-014-j1.06103295394595703575e-007
  +9.89464684007195411233e-015-j9.94718394324336168580e-008
  +8.76480827355855553060e-015-j9.36205547599376299634e-008
  +7.81799256499513843640e-015-j8.84194128288300551756e-008
  +7.01670246830589296071e-015-j8.37657595220496025789e-008
  +6.33257397764607253067e-015-j7.95774715459471714191e-008
  +5.74383127224133828867e-015-j7.57880681389973508599e-008
  +5.23353221293064435526e-015-j7.23431559508611551643e-008
  +4.78833571088550583776e-015-j6.91978013443019934942e-008
  +4.39762081780978026022e-015-j6.63145596216227729923e-008
  +4.05284734569349557042e-015-j6.36619772367578853660e-008
  +3.74708519387342536567e-015-j6.12134396507287583264e-008
  +3.47466336222007756746e-015-j5.89462752192203014815e-008
  +3.23090509063576111972e-015-j5.68410511042481554200e-008
  +3.01192579198387314229e-015-j5.48810148592740934173e-008
  +2.81447732339826409971e-015-j5.30516476972983017736e-008
  +2.63582683772990390126e-015-j5.13403042231919104923e-008
  +2.47366171001800667188e-015-j4.97359197162171790059e-008
  +2.32601431685807086321e-015-j4.82287706339075735367e-008
  +2.19120206838965347658e-015-j4.68102773799691193841e-008
  +2.06777925800688926232e-015-j4.54728408833985812460e-008
  +1.95449814124879604758e-015-j4.42097064144152856682e-008
  +1.85027727615663994847e-015-j4.30148494842959579155e-008
  +1.75417561707648250929e-015-j4.18828797610250196651e-008
  +1.66537119727708138061e-015-j4.08089597671525871661e-008
  +1.58314349441152562685e-015-j3.97887357729737776154e-008
  +1.50685876921977457744e-015-j3.88182788029012467769e-008
  +1.43595781806034068584e-015-j3.78940340694988408661e-008
  +1.36994569554269399141e-015-j3.70127774632314268856e-008
  +1.30838305323266621641e-015-j3.61715779754307165485e-008
  +1.25087881039923061430e-015-j3.53677651315322563278e-008
  +1.19708392772138079817e-015-j3.45989006721511224785e-008
  +1.14668609826095141523e-015-j3.38627538493393990027e-008
  +1.09940520445244881215e-015-j3.31572798108114923753e-008
  +1.05498941735045476781e-015-j3.24806006309990168555e-008
  +1.01321183642337704805e-015-j3.18309886183790419447e-008
  +9.73867585950958240166e-016-j3.12068515866461170883e-008
  +9.36771298468358905215e-016-j3.06067198253644651900e-008
  +9.01754927397096063082e-016-j3.00292345456406108522e-008
  +8.68665840555021561233e-016-j2.94731376096102268414e-008
  +8.37365154068906804487e-016-j2.89372623803445877972e-008
  +8.07726272658942252083e-016-j2.84205255521241471932e-008
  +7.79633607589548483118e-016-j2.79219198406833740161e-008
  +7.52981447995969961901e-016-j2.74405074296371095744e-008
  +7.27672964969388950488e-016-j2.69754140833720745479e-008
  +7.03619330849567504041e-016-j2.65258238486492071351e-008
  +6.80738938741855097481e-016-j2.60909742773598733212e-008
  +6.58956709432477355822e-016-j2.56701521115960048770e-008
  +6.38203474693485198475e-016-j2.52626893796659115572e-008
  +6.18415427504502851262e-016-j2.48679598581086358251e-008
  +5.99533631019749979383e-016-j2.44853758602915814164e-008
  +5.81503579214518701879e-016-j2.41143853169538297818e-008
  +5.64274803087200664293e-016-j2.37544691181933225386e-008
  +5.47800517097414256612e-016-j2.34051386899845993967e-008
  +5.32037301209502993310e-016-j2.30659337814340981960e-008
  +5.16944814501723203049e-016-j2.27364204416993237102e-008
  +5.02485536809847900260e-016-j2.24161891678725741167e-008
  +4.88624535312199702149e-016-j2.21048532072076759213e-008
  +4.75329253341798314927e-016-j2.18020469988897621899e-008
  +4.62569319039160578763e-016-j2.15074247421480087362e-008
  +4.50316371743723242030e-016-j2.12206590789193690168e-008
  +4.38543904269121218969e-016-j2.09414398805125396111e-008
  +4.27227119422911780842e-016-j2.06694731288175712204e-008
  +4.16342799319270887494e-016-j2.04044798835763200528e-008
  +4.05869186197475397439e-016-j2.01461953280880111570e-008
  +3.95785873602881850446e-016-j1.98943678864869119688e-008
  +3.86073706913343080449e-016-j1.96487584064068267175e-008
  +3.76714692304944038791e-016-j1.94091394014506465495e-008
  +3.67691913348591052756e-016-j1.91752943484211190132e-008
  +3.58989454515085565890e-016-j1.89470170347494402854e-008
  +3.50592330942345151842e-016-j1.87241109519876828261e-008
  +3.42486423885673842978e-016-j1.85063887316157299864e-008
  +3.34658421331542320332e-016-j1.82936716197580785641e-008
  +3.27095763308166899229e-016-j1.80857889877153748179e-008
  +3.19786591473102424770e-016-j1.78825778754938560203e-008
  +3.12719702599807949398e-016-j1.76838825657661447075e-008
  +3.05884505622321501567e-016-j1.74895541859225605179e-008
  +2.99270981930345495367e-016-j1.72994503360755777829e-008
  +2.92869648636656739543e-016-j1.71134347410640120746e-008
  +2.86671524565238100327e-016-j1.69313769246697127362e-008
  +2.80668098732237544641e-016-j1.67531519044100323506e-008
  +2.74851301113112400252e-016-j1.65786399054057594225e-008
  +2.69213475508390241451e-016-j1.64077260919479699302e-008
  +2.63747354337613889169e-016-j1.62403003154995216626e-008
  +2.58446035206452849520e-016-j1.60762568779692242661e-008
  +2.53302959105844459227e-016-j1.59154943091895308985e-008
</dep>
