<Qucs Dataset 0.0.19>
<indep time 101>
  +0.00000000000000000000e+000
  +9.99999999999999979887e-013
  +1.99999999999999995977e-012
  +3.00000000000000014161e-012
  +3.99999999999999991955e-012
  +5.00000000000000050528e-012
  +6.00000000000000028322e-012
  +7.00000000000000006115e-012
  +7.99999999999999983909e-012
  +8.99999999999999961703e-012
  +1.00000000000000010106e-011
  +1.10000000000000007885e-011
  +1.20000000000000005664e-011
  +1.30000000000000003444e-011
  +1.40000000000000001223e-011
  +1.49999999999999999002e-011
  +1.59999999999999996782e-011
  +1.69999999999999994561e-011
  +1.79999999999999992341e-011
  +1.90000000000000022432e-011
  +2.00000000000000020211e-011
  +2.10000000000000017991e-011
  +2.20000000000000015770e-011
  +2.30000000000000013549e-011
  +2.40000000000000011329e-011
  +2.50000000000000009108e-011
  +2.60000000000000006887e-011
  +2.70000000000000004667e-011
  +2.80000000000000002446e-011
  +2.90000000000000000226e-011
  +2.99999999999999998005e-011
  +3.10000000000000028096e-011
  +3.19999999999999993564e-011
  +3.30000000000000023655e-011
  +3.39999999999999989122e-011
  +3.50000000000000019214e-011
  +3.59999999999999984681e-011
  +3.70000000000000014772e-011
  +3.80000000000000044864e-011
  +3.90000000000000010331e-011
  +4.00000000000000040422e-011
  +4.10000000000000005890e-011
  +4.20000000000000035981e-011
  +4.30000000000000001449e-011
  +4.40000000000000031540e-011
  +4.49999999999999997007e-011
  +4.60000000000000027099e-011
  +4.69999999999999992566e-011
  +4.80000000000000022657e-011
  +4.89999999999999988125e-011
  +5.00000000000000018216e-011
  +5.10000000000000048307e-011
  +5.20000000000000013775e-011
  +5.30000000000000043866e-011
  +5.40000000000000009334e-011
  +5.50000000000000039425e-011
  +5.60000000000000004892e-011
  +5.70000000000000034984e-011
  +5.80000000000000000451e-011
  +5.90000000000000030542e-011
  +5.99999999999999996010e-011
  +6.09999999999999961478e-011
  +6.20000000000000056192e-011
  +6.30000000000000021660e-011
  +6.39999999999999987127e-011
  +6.50000000000000081842e-011
  +6.60000000000000047310e-011
  +6.70000000000000012777e-011
  +6.79999999999999978245e-011
  +6.90000000000000072960e-011
  +7.00000000000000038427e-011
  +7.10000000000000003895e-011
  +7.19999999999999969363e-011
  +7.30000000000000064077e-011
  +7.40000000000000029545e-011
  +7.49999999999999995012e-011
  +7.60000000000000089727e-011
  +7.70000000000000055195e-011
  +7.80000000000000020662e-011
  +7.89999999999999986130e-011
  +8.00000000000000080845e-011
  +8.10000000000000046312e-011
  +8.20000000000000011780e-011
  +8.29999999999999977247e-011
  +8.40000000000000071962e-011
  +8.50000000000000037430e-011
  +8.60000000000000002897e-011
  +8.69999999999999968365e-011
  +8.80000000000000063080e-011
  +8.90000000000000028547e-011
  +8.99999999999999994015e-011
  +9.10000000000000088729e-011
  +9.20000000000000054197e-011
  +9.30000000000000019665e-011
  +9.39999999999999985132e-011
  +9.50000000000000079847e-011
  +9.60000000000000045315e-011
  +9.70000000000000010782e-011
  +9.79999999999999976250e-011
  +9.90000000000000070965e-011
  +1.00000000000000003643e-010
</indep>
<dep V.It time>
  +0.00000000000000000000e+000
  -8.29988374489269709056e-002
  -8.18323024148063932204e-002
  -7.98202776649768602768e-002
  -7.70261812780553278834e-002
  -7.34815159659283345661e-002
  -6.91822534210494166640e-002
  -6.41912066301771194743e-002
  -5.85582727012553469481e-002
  -5.23397658951623295787e-002
  -4.55946398681404269082e-002
  -3.83967252169280098828e-002
  -3.08147670541680726575e-002
  -2.29245646652035187096e-002
  -1.48049989524155958115e-002
  -6.53724383737641721176e-003
  +1.79604526104842291551e-003
  +1.01115577596008233974e-002
  +1.83261607934373724205e-002
  +2.63098341177843628169e-002
  +3.40780759461741938887e-002
  +4.15053284509002001768e-002
  +4.85173389890316900108e-002
  +5.50440062256301806953e-002
  +6.10200809594217755127e-002
  +6.63858184401321937962e-002
  +7.10875756560391536265e-002
  +7.50783476204811006660e-002
  +7.83182372958762113013e-002
  +8.07748544572988447232e-002
  +8.24236395080041317485e-002
  +8.32585017411195948966e-002
  +8.32622519807829225558e-002
  +8.24058656102805847654e-002
  +8.07577194877762555292e-002
  +7.82701570852436800951e-002
  +7.50321809401295891639e-002
  +7.10120285683725899206e-002
  +6.63140243041224763942e-002
  +6.09210020357123238632e-002
  +5.49510111209372958951e-002
  +4.83996019092153076380e-002
  +4.13964045266418875779e-002
  +3.39472986212029925746e-002
  +2.61908888826585181664e-002
  +1.81405850660668645224e-002
  +9.94100223079941516802e-003
  +1.60998067643436664105e-003
  -6.70505811182207749066e-003
  -1.49851195839574048707e-002
  -2.30832917191322872785e-002
  -3.09827480533087819270e-002
  -3.85403815980780509176e-002
  -4.57447698281474579574e-002
  -5.24597545753800603707e-002
  -5.86823375465284763353e-002
  -6.42861759975582869320e-002
  -6.92793801234939110589e-002
  -7.35478976774469883626e-002
  -7.71131884885912499694e-002
  -7.98754756203371996115e-002
  -8.18712771736918448751e-002
  -8.30165069028504093440e-002
  -8.33678716219268950427e-002
  -8.28304875849195654247e-002
  -8.15284935479181904761e-002
  -7.93825454803159663575e-002
  -7.64428600653839079859e-002
  -7.27388262891319747894e-002
  -6.82861749318397909247e-002
  -6.31718069351740185713e-002
  -5.74255526458991305550e-002
  -5.11048592251020991628e-002
  -4.43086144511935231538e-002
  -3.70337239334039280969e-002
  -2.93886148665538152192e-002
  -2.14280333404591322166e-002
  -1.32747161441041493929e-002
  -4.98849008802789047057e-003
  +3.34780474895994680992e-003
  +1.16085420299401036875e-002
  +1.97952851604703515542e-002
  +2.77839029203288227776e-002
  +3.54945305169175467919e-002
  +4.28725743552681587412e-002
  +4.97995145271441022605e-002
  +5.62285922137618007777e-002
  +6.20955338481032348419e-002
  +6.73033342494084030339e-002
  +7.18762488805824995008e-002
  +7.57302093665705999825e-002
  +7.88572676033043595822e-002
  +8.11653047382181053182e-002
  +8.26618277620503189018e-002
  +8.33318754491252228211e-002
  +8.31687854712807317359e-002
  +8.21403199675004164204e-002
  +8.03240512694617658784e-002
  +7.77043412275912753762e-002
  +7.43454501946877038820e-002
  +7.02051981522297807725e-002
</dep>
<dep Vin.Vt time>
  +0.00000000000000000000e+000
  +9.98615852645849955138e-002
  +1.98724822023215508260e-001
  +2.95601342582245407709e-001
  +3.89522641091242460831e-001
  +4.79549756008635807980e-001
  +5.64782657203369065080e-001
  +6.44369243846675154863e-001
  +7.17513863139143670544e-001
  +7.83485264708614015383e-001
  +8.41623911156214710161e-001
  +8.91348571664655975333e-001
  +9.32162132750347760535e-001
  +9.63656568067377206077e-001
  +9.85517017578610654560e-001
  +9.97524935313130245440e-001
  +9.99560274240858137595e-001
  +9.91602686421470647105e-001
  +9.73731726429326038819e-001
  +9.46126056020702876914e-001
  +9.09061657994545413430e-001
  +8.62909077103327426528e-001
  +8.08129715597540321248e-001
  +7.45271220438440851197e-001
  +6.74962008294584192569e-001
  +5.97904983057519046064e-001
  +5.14870508684665439958e-001
  +4.26688707622140173115e-001
  +3.34241161802673436565e-001
  +2.38452099186432092681e-001
  +1.40279153955732038828e-001
  +4.07037927369700291980e-002
  -5.92784974380860807397e-002
  -1.58668161337525842614e-001
  -2.56471568405630401255e-001
  -3.51710946408312852274e-001
  -4.43434156537790613584e-001
  -5.30724212251626914494e-001
  -6.12708446683220775419e-001
  -6.88567236974195195920e-001
  -7.57542198308709391341e-001
  -8.18943765731288131349e-001
  -8.72158087950295590751e-001
  -9.16653164207460902091e-001
  -9.51984162861208682571e-001
  -9.77797868512179646494e-001
  -9.93836213211607533147e-001
  -9.99938856449913426871e-001
  -9.96044788132543268411e-001
  -9.82192938517577940338e-001
  -9.58521789017376057984e-001
  -9.25267987755188259236e-001
  -8.82763983717474887136e-001
  -8.31434703154060761321e-001
  -7.71793301453241542553e-001
  -7.04436032961702540689e-001
  -6.30036290037333523983e-001
  -5.49337870928429672368e-001
  -4.63147543782491566411e-001
  -3.72326981124602274242e-001
  -2.77784145439027352342e-001
  -1.80464211975142230227e-001
  -8.13401195253321551704e-002
  +1.85971563581971595369e-002
  +1.18348510465941234027e-001
  +2.16916696308406153904e-001
  +3.13316295911202635782e-001
  +4.06583571356662953900e-001
  +4.95786099582919692619e-001
  +5.80032094118266949856e-001
  +6.58479320558410075037e-001
  +7.30343516655707847285e-001
  +7.94906232842038207309e-001
  +8.51522014801067150813e-001
  +8.99624856283418039560e-001
  +9.38733857653873848825e-001
  +9.68458033600273937580e-001
  +9.88500221939900058921e-001
  +9.98660054445752232155e-001
  +9.98835959992396382745e-001
  +9.89026179995295295910e-001
  +9.69328785991946939582e-001
  +9.39940699189062867092e-001
  +9.01155721777692986230e-001
  +8.53361599697875838899e-001
  +7.97036146217300678352e-001
  +7.32742465077816595986e-001
  +6.61123320965542271566e-001
  +5.82894713584795054473e-001
  +4.98838719577907485636e-001
  +4.09795673852550224048e-001
  +3.16655768482380584050e-001
  +2.20350153169508816697e-001
  +1.21841626240313943841e-001
  +2.21150092397705867742e-002
  -7.78326986474773413471e-002
  -1.77002287919810291639e-001
  -2.74402328178605436904e-001
  -3.69059079777985576953e-001
  -4.60026228614412169282e-001
  -5.46394346734268454568e-001
</dep>
<dep _net0.Vt time>
  +0.00000000000000000000e+000
  +8.32110133333669593769e-002
  +1.65576297516921405739e-001
  +2.46272386260213915765e-001
  +3.24492541353779584412e-001
  +3.99454765528318711532e-001
  +4.70409648966290283578e-001
  +5.36647830365715727829e-001
  +5.97507107554266614358e-001
  +6.52379053001083342167e-001
  +7.00715087626619603789e-001
  +7.42032000384324152975e-001
  +7.75916726230152287158e-001
  +8.02030510929619744331e-001
  +8.20112288855170512569e-001
  +8.29981292943535398088e-001
  +8.31538861882419988447e-001
  +8.24769426459494803261e-001
  +8.09740665212836052689e-001
  +7.86602817404854159911e-001
  +7.55587222616947551401e-001
  +7.17003945644939300053e-001
  +6.71238718269734913058e-001
  +6.18749072548567147223e-001
  +5.60059766719315899053e-001
  +4.95757539022999127454e-001
  +4.26485241892160193977e-001
  +3.52935415147571762695e-001
  +2.75843362454073981471e-001
  +1.95979800252463920440e-001
  +1.14143152658425409141e-001
  +3.11515683939865076213e-002
  -5.21652545332336944894e-002
  -1.34974369137113359152e-001
  -2.16447903684849590755e-001
  -2.95771338649484460959e-001
  -3.72151649744084656035e-001
  -4.44825236041551996813e-001
  -5.13065553939598961719e-001
  -5.76190380651692590774e-001
  -6.33568634608491443316e-001
  -6.84626684584019096214e-001
  -7.28854084472223662239e-001
  -7.65808676381475428308e-001
  -7.95121011029760627054e-001
  -8.16498041248412631532e-001
  -8.29726051669268382938e-001
  -8.34672795306189319042e-001
  -8.31288815670883862730e-001
  -8.19607941205377721339e-001
  -7.99746947088164961137e-001
  -7.71904387795044666376e-001
  -7.36358612085934671754e-001
  -6.93464980262452734827e-001
  -6.43652311516263786473e-001
  -5.87418596885187715984e-001
  -5.25326020676027960477e-001
  -4.57995340126566674588e-001
  -3.86099679495062297896e-001
  -3.10357800619736334813e-001
  -2.31526917224641026749e-001
  -1.50395124809610009065e-001
  -6.77735218051251503413e-002
  +1.55118994069438631556e-002
  +9.86285095725931565402e-002
  +1.80745366728677886448e-001
  +2.61041527633100789441e-001
  +3.38714246092360005136e-001
  +4.12987005152610442416e-001
  +4.83117272493248373078e-001
  +5.48403947136995695288e-001
  +6.08194333548387922050e-001
  +6.61890690218455701732e-001
  +7.08956190668383667841e-001
  +7.48920325997551206143e-001
  +7.81383555174788524411e-001
  +8.06021324738978806046e-001
  +8.22587345863166952142e-001
  +8.30915994604726315664e-001
  +8.30924009056803081208e-001
  +8.22611300584847660033e-001
  +8.06060997784351251916e-001
  +7.81438550861275893489e-001
  +7.48990120648142077009e-001
  +7.09040097338233921143e-001
  +6.61987895439523521546e-001
  +6.08303903763002029592e-001
  +5.48524820784451083711e-001
  +4.83248272832494996099e-001
  +4.13126866327729269646e-001
  +3.38861623143983381468e-001
  +2.61194995242492455922e-001
  +1.80903451072223248053e-001
  +9.87896894694191701758e-002
  +1.56746304950877712869e-002
  -6.76107948555077359343e-002
  -1.50233952896248190712e-001
  -2.31368833115122574107e-001
  -3.10204300243643649182e-001
  -3.85952203871609555996e-001
  -4.57855274471678785897e-001
</dep>
<dep Vout.Vt time>
  +0.00000000000000000000e+000
  +8.32110133333669593769e-002
  +1.65576297516921405739e-001
  +2.46272386260213915765e-001
  +3.24492541353779584412e-001
  +3.99454765528318711532e-001
  +4.70409648966290283578e-001
  +5.36647830365715727829e-001
  +5.97507107554266614358e-001
  +6.52379053001083342167e-001
  +7.00715087626619603789e-001
  +7.42032000384324152975e-001
  +7.75916726230152287158e-001
  +8.02030510929619744331e-001
  +8.20112288855170512569e-001
  +8.29981292943535398088e-001
  +8.31538861882419988447e-001
  +8.24769426459494803261e-001
  +8.09740665212836052689e-001
  +7.86602817404854159911e-001
  +7.55587222616947551401e-001
  +7.17003945644939300053e-001
  +6.71238718269734913058e-001
  +6.18749072548567147223e-001
  +5.60059766719315899053e-001
  +4.95757539022999127454e-001
  +4.26485241892160193977e-001
  +3.52935415147571762695e-001
  +2.75843362454073981471e-001
  +1.95979800252463920440e-001
  +1.14143152658425409141e-001
  +3.11515683939865076213e-002
  -5.21652545332336944894e-002
  -1.34974369137113359152e-001
  -2.16447903684849590755e-001
  -2.95771338649484460959e-001
  -3.72151649744084656035e-001
  -4.44825236041551996813e-001
  -5.13065553939598961719e-001
  -5.76190380651692590774e-001
  -6.33568634608491443316e-001
  -6.84626684584019096214e-001
  -7.28854084472223662239e-001
  -7.65808676381475428308e-001
  -7.95121011029760627054e-001
  -8.16498041248412631532e-001
  -8.29726051669268382938e-001
  -8.34672795306189319042e-001
  -8.31288815670883862730e-001
  -8.19607941205377721339e-001
  -7.99746947088164961137e-001
  -7.71904387795044666376e-001
  -7.36358612085934671754e-001
  -6.93464980262452734827e-001
  -6.43652311516263786473e-001
  -5.87418596885187715984e-001
  -5.25326020676027960477e-001
  -4.57995340126566674588e-001
  -3.86099679495062297896e-001
  -3.10357800619736334813e-001
  -2.31526917224641026749e-001
  -1.50395124809610009065e-001
  -6.77735218051251503413e-002
  +1.55118994069438631556e-002
  +9.86285095725931565402e-002
  +1.80745366728677886448e-001
  +2.61041527633100789441e-001
  +3.38714246092360005136e-001
  +4.12987005152610442416e-001
  +4.83117272493248373078e-001
  +5.48403947136995695288e-001
  +6.08194333548387922050e-001
  +6.61890690218455701732e-001
  +7.08956190668383667841e-001
  +7.48920325997551206143e-001
  +7.81383555174788524411e-001
  +8.06021324738978806046e-001
  +8.22587345863166952142e-001
  +8.30915994604726315664e-001
  +8.30924009056803081208e-001
  +8.22611300584847660033e-001
  +8.06060997784351251916e-001
  +7.81438550861275893489e-001
  +7.48990120648142077009e-001
  +7.09040097338233921143e-001
  +6.61987895439523521546e-001
  +6.08303903763002029592e-001
  +5.48524820784451083711e-001
  +4.83248272832494996099e-001
  +4.13126866327729269646e-001
  +3.38861623143983381468e-001
  +2.61194995242492455922e-001
  +1.80903451072223248053e-001
  +9.87896894694191701758e-002
  +1.56746304950877712869e-002
  -6.76107948555077359343e-002
  -1.50233952896248190712e-001
  -2.31368833115122574107e-001
  -3.10204300243643649182e-001
  -3.85952203871609555996e-001
  -4.57855274471678785897e-001
</dep>
