<Qucs Dataset 0.0.19>
<indep time 21>
  +0.00000000000000000000e+000
  +5.00000000000000027756e-002
  +1.00000000000000005551e-001
  +1.49999999999999994449e-001
  +2.00000000000000011102e-001
  +2.50000000000000000000e-001
  +2.99999999999999988898e-001
  +3.49999999999999977796e-001
  +4.00000000000000022204e-001
  +4.50000000000000011102e-001
  +5.00000000000000000000e-001
  +5.50000000000000044409e-001
  +5.99999999999999977796e-001
  +6.50000000000000022204e-001
  +6.99999999999999955591e-001
  +7.50000000000000000000e-001
  +8.00000000000000044409e-001
  +8.49999999999999977796e-001
  +9.00000000000000022204e-001
  +9.49999999999999955591e-001
  +1.00000000000000000000e+000
</indep>
<dep V2.It time>
  +4.00000000000000000000e+000
  +4.00000000000000000000e+000
  +4.00000000000000000000e+000
  +4.00000000000000000000e+000
  +4.00000000000000000000e+000
  +4.00000000000000000000e+000
  +4.00000000000000000000e+000
  +4.00000000000000000000e+000
  +4.00000000000000000000e+000
  +4.00000000000000000000e+000
  +4.00000000000000000000e+000
  +4.00000000000000000000e+000
  +4.00000000000000000000e+000
  +4.00000000000000000000e+000
  +4.00000000000000000000e+000
  +4.00000000000000000000e+000
  +4.00000000000000000000e+000
  +4.00000000000000000000e+000
  +4.00000000000000000000e+000
  +4.00000000000000000000e+000
  +1.00000000000000000000e+000
</dep>
<dep _net0.Vt time>
  +2.00000000000000000000e+000
  +2.00000000000000000000e+000
  +2.00000000000000000000e+000
  +2.00000000000000000000e+000
  +2.00000000000000000000e+000
  +2.00000000000000000000e+000
  +2.00000000000000000000e+000
  +2.00000000000000000000e+000
  +2.00000000000000000000e+000
  +2.00000000000000000000e+000
  +2.00000000000000000000e+000
  +2.00000000000000000000e+000
  +2.00000000000000000000e+000
  +2.00000000000000000000e+000
  +2.00000000000000000000e+000
  +2.00000000000000000000e+000
  +2.00000000000000000000e+000
  +2.00000000000000000000e+000
  +2.00000000000000000000e+000
  +2.00000000000000000000e+000
  +2.00000000000000000000e+000
</dep>
<dep X.Vt time>
  +8.00000000020000000000e+010
  +2.00000000000000000000e+000
  +2.00000000000000000000e+000
  +2.00000000000000000000e+000
  +2.00000000000000000000e+000
  +2.00000000000000000000e+000
  +2.00000000000000000000e+000
  +2.00000000000000000000e+000
  +2.00000000000000000000e+000
  +2.00000000000000000000e+000
  +2.00000000000000000000e+000
  +2.00000000000000000000e+000
  +2.00000000000000000000e+000
  +2.00000000000000000000e+000
  +2.00000000000000000000e+000
  +2.00000000000000000000e+000
  +2.00000000000000000000e+000
  +2.00000000000000000000e+000
  +2.00000000000000000000e+000
  +2.00000000000000000000e+000
  -4.79799999999988904165e+003
</dep>
