<Qucs Dataset 0.0.19>
<indep time 81>
  +0.00000000000000000000e+000
  +9.99999999999999979887e-013
  +1.99999999999999995977e-012
  +2.99999999999999973771e-012
  +3.99999999999999991955e-012
  +4.99999999999999969748e-012
  +5.99999999999999947542e-012
  +6.99999999999999925336e-012
  +7.99999999999999983909e-012
  +8.99999999999999961703e-012
  +9.99999999999999939497e-012
  +1.09999999999999991729e-011
  +1.19999999999999989508e-011
  +1.29999999999999987288e-011
  +1.39999999999999985067e-011
  +1.49999999999999999002e-011
  +1.59999999999999996782e-011
  +1.69999999999999994561e-011
  +1.79999999999999992341e-011
  +1.89999999999999990120e-011
  +1.99999999999999987899e-011
  +2.09999999999999985679e-011
  +2.19999999999999983458e-011
  +2.29999999999999981238e-011
  +2.39999999999999979017e-011
  +2.49999999999999976796e-011
  +2.59999999999999974576e-011
  +2.69999999999999972355e-011
  +2.79999999999999970134e-011
  +2.89999999999999967914e-011
  +2.99999999999999998005e-011
  +3.09999999999999963473e-011
  +3.19999999999999993564e-011
  +3.29999999999999959031e-011
  +3.39999999999999989122e-011
  +3.49999999999999954590e-011
  +3.59999999999999984681e-011
  +3.69999999999999950149e-011
  +3.79999999999999980240e-011
  +3.89999999999999945708e-011
  +3.99999999999999975799e-011
  +4.10000000000000005890e-011
  +4.19999999999999971358e-011
  +4.30000000000000001449e-011
  +4.39999999999999966916e-011
  +4.49999999999999997007e-011
  +4.59999999999999962475e-011
  +4.69999999999999992566e-011
  +4.79999999999999958034e-011
  +4.89999999999999988125e-011
  +4.99999999999999953593e-011
  +5.09999999999999983684e-011
  +5.19999999999999949151e-011
  +5.29999999999999979243e-011
  +5.39999999999999944710e-011
  +5.49999999999999974801e-011
  +5.59999999999999940269e-011
  +5.69999999999999970360e-011
  +5.79999999999999935828e-011
  +5.89999999999999901295e-011
  +5.99999999999999996010e-011
  +6.09999999999999961478e-011
  +6.19999999999999926945e-011
  +6.30000000000000021660e-011
  +6.39999999999999987127e-011
  +6.49999999999999952595e-011
  +6.59999999999999918063e-011
  +6.70000000000000012777e-011
  +6.79999999999999978245e-011
  +6.89999999999999943713e-011
  +6.99999999999999909180e-011
  +7.10000000000000003895e-011
  +7.19999999999999969363e-011
  +7.29999999999999934830e-011
  +7.39999999999999900298e-011
  +7.49999999999999995012e-011
  +7.59999999999999960480e-011
  +7.69999999999999925948e-011
  +7.79999999999999891415e-011
  +7.89999999999999986130e-011
  +7.99999999999999951598e-011
</indep>
<dep V1.It time>
  -3.98408488063660325899e-005
  -9.52133642681844672394e-004
  -1.81670525918081792252e-003
  -2.60458334778730388887e-003
  -3.32532062490908291233e-003
  -3.98728625833414188073e-003
  -4.59781789959484623459e-003
  -5.16333709295441374565e-003
  -5.68946365158365906234e-003
  -6.18111575384907782627e-003
  -6.64259754255925628785e-003
  -7.07767578742770665789e-003
  -7.48964697621185525322e-003
  -7.88139602950981531249e-003
  -8.25544768500297357350e-003
  -8.61401146636555509195e-003
  -8.95902103779681012463e-003
  -9.29216864513191485864e-003
  -9.61493525697328793589e-003
  -9.92861694269555825065e-003
  -1.02343479571513438359e-002
  -1.05331209432468573400e-002
  -1.08258046122218804658e-002
  -1.11131592165432460662e-002
  -1.13958500910044373960e-002
  -1.16744595032162133685e-002
  -1.19494970245610475368e-002
  -1.22214086063318419506e-002
  -1.24905845227129361913e-002
  -1.27573663220782763938e-002
  -1.30220529104186563685e-002
  -1.32849058752517977522e-002
  -1.35461541448412513267e-002
  -1.38059980657108498370e-002
  -1.40646129710806176011e-002
  -1.43221523037828420838e-002
  -1.45787503492813084321e-002
  -1.48345246274726606101e-002
  -1.50895779858708240645e-002
  -1.53440004314569309468e-002
  -1.55978707338224279605e-002
  -1.58512578281594165852e-002
  -1.61042220430873961323e-002
  -1.63568161751856261388e-002
  -1.66090864293698091403e-002
  -1.68610732418626278750e-002
  -1.71128120004162449785e-002
  -1.73643336746148492511e-002
  -1.76156653674838063750e-002
  -1.78668307982303153914e-002
  -1.81178507247137972336e-002
  -1.83687433131707496259e-002
  -1.86195244617793839725e-002
  -1.88702080838271668561e-002
  -1.91208063555248324039e-002
  -1.93713299328807618538e-002
  -1.96217881414985292898e-002
  -1.98721891426782495960e-002
  -2.01225400787800497160e-002
  -2.03728472004389739303e-002
  -2.06231159778970454810e-002
  -2.08733511984354191959e-002
  -2.11235570516422783982e-002
  -2.13737372040348864999e-002
  -2.16238948643650355508e-002
  -2.18740328407712771031e-002
  -2.21241535907954617324e-002
  -2.23742592651548534433e-002
  -2.26243517460492059301e-002
  -2.28744326806853172374e-002
  -2.31245035106158181026e-002
  -2.33745654974152686223e-002
  -2.36246197451503263387e-002
  -2.38746672200447797307e-002
  -2.41247087676891118491e-002
  -2.43747451281016956626e-002
  -2.46247769489094589512e-002
  -2.48748047968829662235e-002
  -2.51248291680313852459e-002
  -2.53748504964370277803e-002
  -2.56248691619869253810e-002
</dep>
<dep _net0.Vt time>
  +1.00000000000000000000e+000
  +1.00000000000000000000e+000
  +1.00000000000000000000e+000
  +1.00000000000000000000e+000
  +1.00000000000000000000e+000
  +1.00000000000000000000e+000
  +1.00000000000000000000e+000
  +1.00000000000000000000e+000
  +1.00000000000000000000e+000
  +1.00000000000000000000e+000
  +1.00000000000000000000e+000
  +1.00000000000000000000e+000
  +1.00000000000000000000e+000
  +1.00000000000000000000e+000
  +1.00000000000000000000e+000
  +1.00000000000000000000e+000
  +1.00000000000000000000e+000
  +1.00000000000000000000e+000
  +1.00000000000000000000e+000
  +1.00000000000000000000e+000
  +1.00000000000000000000e+000
  +1.00000000000000000000e+000
  +1.00000000000000000000e+000
  +1.00000000000000000000e+000
  +1.00000000000000000000e+000
  +1.00000000000000000000e+000
  +1.00000000000000000000e+000
  +1.00000000000000000000e+000
  +1.00000000000000000000e+000
  +1.00000000000000000000e+000
  +1.00000000000000000000e+000
  +1.00000000000000000000e+000
  +1.00000000000000000000e+000
  +1.00000000000000000000e+000
  +1.00000000000000000000e+000
  +1.00000000000000000000e+000
  +1.00000000000000000000e+000
  +1.00000000000000000000e+000
  +1.00000000000000000000e+000
  +1.00000000000000000000e+000
  +1.00000000000000000000e+000
  +1.00000000000000000000e+000
  +1.00000000000000000000e+000
  +1.00000000000000000000e+000
  +1.00000000000000000000e+000
  +1.00000000000000000000e+000
  +1.00000000000000000000e+000
  +1.00000000000000000000e+000
  +1.00000000000000000000e+000
  +1.00000000000000000000e+000
  +1.00000000000000000000e+000
  +1.00000000000000000000e+000
  +1.00000000000000000000e+000
  +1.00000000000000000000e+000
  +1.00000000000000000000e+000
  +1.00000000000000000000e+000
  +1.00000000000000000000e+000
  +1.00000000000000000000e+000
  +1.00000000000000000000e+000
  +1.00000000000000000000e+000
  +1.00000000000000000000e+000
  +1.00000000000000000000e+000
  +1.00000000000000000000e+000
  +1.00000000000000000000e+000
  +1.00000000000000000000e+000
  +1.00000000000000000000e+000
  +1.00000000000000000000e+000
  +1.00000000000000000000e+000
  +1.00000000000000000000e+000
  +1.00000000000000000000e+000
  +1.00000000000000000000e+000
  +1.00000000000000000000e+000
  +1.00000000000000000000e+000
  +1.00000000000000000000e+000
  +1.00000000000000000000e+000
  +1.00000000000000000000e+000
  +1.00000000000000000000e+000
  +1.00000000000000000000e+000
  +1.00000000000000000000e+000
  +1.00000000000000000000e+000
  +1.00000000000000000000e+000
</dep>
<dep X.Vt time>
  +9.96021220159151177143e-001
  +9.06382180975754070396e-001
  +8.24439298775890949678e-001
  +7.52722220295026112069e-001
  +6.89957250012122269567e-001
  +6.35028498888781101073e-001
  +5.86957613387353860368e-001
  +5.44888387606078383740e-001
  +5.08071513122179130306e-001
  +4.75851232820123259959e-001
  +4.47653660992099633464e-001
  +4.22976561676306372917e-001
  +4.01380403171753219471e-001
  +3.82480529398691815324e-001
  +3.65940308666270752713e-001
  +3.51465137817926709385e-001
  +3.38797194960426206745e-001
  +3.27710847315745568142e-001
  +3.18008632403562530033e-001
  +3.09517740973926480663e-001
  +3.02086939046488256455e-001
  +2.95583874233753318705e-001
  +2.89892718370417079576e-001
  +2.84912104460901982605e-001
  +2.80553321199409622100e-001
  +2.76738732904506401500e-001
  +2.73400396725195671266e-001
  +2.70478852489089816036e-001
  +2.67922063638277752062e-001
  +2.65684490389566152491e-001
  +2.63726278610849296236e-001
  +2.62012549966430696724e-001
  +2.60512780687836731364e-001
  +2.59200257905223663268e-001
  +2.58051603855921407593e-001
  +2.57046359495625265090e-001
  +2.56166620095830188664e-001
  +2.55396716336983353735e-001
  +2.54722935217228385607e-001
  +2.54133275805747793630e-001
  +2.53617235490348813531e-001
  +2.53165622912084053997e-001
  +2.52770394255020014462e-001
  +2.52424509975256172734e-001
  +2.52121809417364839412e-001
  +2.51856901084989370787e-001
  +2.51625066611173786590e-001
  +2.51422176718026746389e-001
  +2.51244617668832659341e-001
  +2.51089226902632078886e-001
  +2.50953236704834825588e-001
  +2.50834224910575165346e-001
  +2.50730071762757578124e-001
  +2.50638922156387056184e-001
  +2.50559152596698475612e-001
  +2.50489342282575244703e-001
  +2.50428247800206504881e-001
  +2.50374780976244992736e-001
  +2.50327989496005431924e-001
  +2.50287039941482269967e-001
  +2.50251202947074147254e-001
  +2.50219840208624144662e-001
  +2.50192393114375355445e-001
  +2.50168372795361471095e-001
  +2.50147351418007202195e-001
  +2.50128954563841821024e-001
  +2.50112854560617103861e-001
  +2.50098764646032034609e-001
  +2.50086433860117640648e-001
  +2.50075642575303458415e-001
  +2.50066198584569965302e-001
  +2.50057933677977128895e-001
  +2.50050700646635259972e-001
  +2.50044370660708503706e-001
  +2.50038830974797454676e-001
  +2.50033982919786901267e-001
  +2.50029740145418233332e-001
  +2.50026027082283164304e-001
  +2.50022777595827194741e-001
  +2.50019933808409478004e-001
  +2.50017445068422827781e-001
</dep>
