<Qucs Dataset 0.0.19>
<indep time 101>
  +0.00000000000000000000e+000
  +1.00000000000000003643e-010
  +2.00000000000000007286e-010
  +2.99999999999999998005e-010
  +4.00000000000000014573e-010
  +5.00000000000000031141e-010
  +5.99999999999999996010e-010
  +7.00000000000000064277e-010
  +8.00000000000000029146e-010
  +8.99999999999999994015e-010
  +1.00000000000000006228e-009
  +1.09999999999999992375e-009
  +1.19999999999999999202e-009
  +1.30000000000000006029e-009
  +1.40000000000000012855e-009
  +1.49999999999999999002e-009
  +1.60000000000000005829e-009
  +1.70000000000000012656e-009
  +1.79999999999999998803e-009
  +1.90000000000000005630e-009
  +2.00000000000000012456e-009
  +2.10000000000000019283e-009
  +2.19999999999999984751e-009
  +2.29999999999999991577e-009
  +2.39999999999999998404e-009
  +2.50000000000000005231e-009
  +2.60000000000000012057e-009
  +2.70000000000000018884e-009
  +2.80000000000000025711e-009
  +2.89999999999999991178e-009
  +2.99999999999999998005e-009
  +3.10000000000000004832e-009
  +3.20000000000000011658e-009
  +3.30000000000000018485e-009
  +3.40000000000000025312e-009
  +3.49999999999999990779e-009
  +3.59999999999999997606e-009
  +3.70000000000000004433e-009
  +3.80000000000000011259e-009
  +3.90000000000000018086e-009
  +4.00000000000000024913e-009
  +4.10000000000000031739e-009
  +4.20000000000000038566e-009
  +4.30000000000000045393e-009
  +4.39999999999999969501e-009
  +4.49999999999999976328e-009
  +4.59999999999999983155e-009
  +4.69999999999999989981e-009
  +4.79999999999999996808e-009
  +4.90000000000000003635e-009
  +5.00000000000000010461e-009
  +5.10000000000000017288e-009
  +5.20000000000000024115e-009
  +5.30000000000000030941e-009
  +5.40000000000000037768e-009
  +5.50000000000000044595e-009
  +5.60000000000000051421e-009
  +5.69999999999999975530e-009
  +5.79999999999999982357e-009
  +5.89999999999999989183e-009
  +5.99999999999999996010e-009
  +6.10000000000000002837e-009
  +6.20000000000000009663e-009
  +6.30000000000000016490e-009
  +6.40000000000000023317e-009
  +6.50000000000000030143e-009
  +6.60000000000000036970e-009
  +6.70000000000000043797e-009
  +6.80000000000000050623e-009
  +6.89999999999999974732e-009
  +6.99999999999999981559e-009
  +7.09999999999999988385e-009
  +7.19999999999999995212e-009
  +7.30000000000000002039e-009
  +7.40000000000000008865e-009
  +7.50000000000000098410e-009
  +7.60000000000000022519e-009
  +7.69999999999999946627e-009
  +7.80000000000000036172e-009
  +7.89999999999999960281e-009
  +8.00000000000000049825e-009
  +8.09999999999999973934e-009
  +8.20000000000000063479e-009
  +8.29999999999999987587e-009
  +8.40000000000000077132e-009
  +8.50000000000000001241e-009
  +8.60000000000000090785e-009
  +8.70000000000000014894e-009
  +8.79999999999999939003e-009
  +8.90000000000000028547e-009
  +8.99999999999999952656e-009
  +9.10000000000000042201e-009
  +9.19999999999999966309e-009
  +9.30000000000000055854e-009
  +9.39999999999999979963e-009
  +9.50000000000000069507e-009
  +9.59999999999999993616e-009
  +9.70000000000000083161e-009
  +9.80000000000000007269e-009
  +9.90000000000000096814e-009
  +1.00000000000000002092e-008
</indep>
<dep V1.It time>
  -1.00249376558603470189e-001
  -2.37808558824328741084e-004
  -2.26210100863253774995e-004
  -2.15177143649979406856e-004
  -2.04682497350979224118e-004
  -1.94699697240969659285e-004
  -1.85203598610097114633e-004
  -1.76170825761921584929e-004
  -1.67578436759666912813e-004
  -1.59405124800653395832e-004
  -1.51630598312089092099e-004
  -1.44235111121134609554e-004
  -1.37200458418580277823e-004
  -1.30508900668755578210e-004
  -1.24143704402335431801e-004
  -1.18088836941770999162e-004
  -1.12329393561517889948e-004
  -1.06850850467203302777e-004
  -1.01639408286216800033e-004
  -9.66822384775520033556e-005
  -9.19668403688231474820e-005
  -8.74814222405413032197e-005
  -8.32146862068661841800e-005
  -7.91561292253968888568e-005
  -7.52955166875640615094e-005
  -7.16231944226585978425e-005
  -6.81299791139499083363e-005
  -6.48071353349931355333e-005
  -6.16463537042523281994e-005
  -5.86396728346728294406e-005
  -5.57796914489140443442e-005
  -5.30591974294123856423e-005
  -5.04713876812291315247e-005
  -4.80097909105118409410e-005
  -4.56682514424101097784e-005
  -4.34408713995008331733e-005
  -4.13221678395849512382e-005
  -3.93067979521161321201e-005
  -3.73897219343823894433e-005
  -3.55661457856324314704e-005
  -3.38315093186184709688e-005
  -3.21814747562583903899e-005
  -3.06119158838563139432e-005
  -2.91189077312122395467e-005
  -2.76986897043978568271e-005
  -2.63477657797222438439e-005
  -2.50627292840781799865e-005
  -2.38403667474737550802e-005
  -2.26776214279421719534e-005
  -2.15715856671010392312e-005
  -2.05194936193775687963e-005
  -1.95187143353032217081e-005
  -1.85667451824244925085e-005
  -1.76612055869817841667e-005
  -1.67998310808115165912e-005
  -1.59804676387192379715e-005
  -1.52010662919523613238e-005
  -1.44596638817301529614e-005
  -1.37544353640977094159e-005
  -1.30836023390771652203e-005
  -1.24454872654513427422e-005
  -1.18384944192081071083e-005
  -1.12611059032336578299e-005
  -1.07118778514810682363e-005
  -1.01894368182942030802e-005
  -9.69247634382752260495e-006
  -9.21975368725826165866e-006
  -8.77008671855503146473e-006
  -8.34235096300180677380e-006
  -7.93546903827163267004e-006
  -7.54843935952519829021e-006
  -7.18028594026276902138e-006
  -6.83008814511624736190e-006
  -6.49697024022958939150e-006
  -6.18009920304740683781e-006
  -5.87868263933232951908e-006
  -5.59196134004562875547e-006
  -5.31922431385621418505e-006
  -5.05979444686412247346e-006
  -4.81301282469838825049e-006
  -4.57827196715135750381e-006
  -4.35497566635402276599e-006
  -4.14257425379923195207e-006
  -3.94052826062237887507e-006
  -3.74834032829092440907e-006
  -3.56552232720863627666e-006
  -3.39162423068013513423e-006
  -3.22620436269596130375e-006
  -3.06885252668884309785e-006
  -2.91917807120599810374e-006
  -2.77680084474547742989e-006
  -2.64137037001937303267e-006
  -2.51254267326247960820e-006
  -2.39000063088214918230e-006
  -2.27343300371149633059e-006
  -2.16255284766034180629e-006
  -2.05707854323121199273e-006
  -1.95675045381772666356e-006
  -1.86131376045343814064e-006
  -1.77053353513361311916e-006
  -1.68417920938272185787e-006
</dep>
<dep Vout.Vt time>
  +5.01246882793017434210e-001
  +5.24382882351343559968e-001
  +5.47579798273508333573e-001
  +5.69645712700040385279e-001
  +5.90635005298058346490e-001
  +6.10600605518037298225e-001
  +6.29592802779770033261e-001
  +6.47658348476188527876e-001
  +6.64843126480703205949e-001
  +6.81189750398730198278e-001
  +6.96738803375781090566e-001
  +7.11529777757696879625e-001
  +7.25599083162893676580e-001
  +7.38982198662435196823e-001
  +7.51712591195382806575e-001
  +7.63822326116503913518e-001
  +7.75341212876901497708e-001
  +7.86298299065648742534e-001
  +7.96721183427634982444e-001
  +8.06635523044849422902e-001
  +8.16066319262398254253e-001
  +8.25037155518854592451e-001
  +8.33570627586217249849e-001
  +8.41687741549258738871e-001
  +8.49408966624819572466e-001
  +8.56753611154749350476e-001
  +8.63740041772057320912e-001
  +8.70385729330054092046e-001
  +8.76707292591427767015e-001
  +8.82720654330605425386e-001
  +8.88440617102216223522e-001
  +8.93881605141133572801e-001
  +8.99057224637569984971e-001
  +9.03980418178944256091e-001
  +9.08663497115199336740e-001
  +9.13118257201030458781e-001
  +9.17355664320811836632e-001
  +9.21386404095760003230e-001
  +9.25220556131211568918e-001
  +9.28867708428743776850e-001
  +9.32336981362734462664e-001
  +9.35637050487531762855e-001
  +9.38776168232272612002e-001
  +9.41762184537598523448e-001
  +9.44602620591244002135e-001
  +9.47304468440533065099e-001
  +9.49874541431902641442e-001
  +9.52319266505042616444e-001
  +9.54644757144145317262e-001
  +9.56856828665794134636e-001
  +9.58961012761232356461e-001
  +9.60962571329371684214e-001
  +9.62866509635140421786e-001
  +9.64677588826064247307e-001
  +9.66400337838392520240e-001
  +9.68039064722535202989e-001
  +9.69597867416134184815e-001
  +9.71080672236563247068e-001
  +9.72491129271796039824e-001
  +9.73832795321826427681e-001
  +9.75109025469104273576e-001
  +9.76323011161582710038e-001
  +9.77477788193519714355e-001
  +9.78576244297040043207e-001
  +9.79621126363439453932e-001
  +9.80615047312291765458e-001
  +9.81560492625532798883e-001
  +9.82459826562866456179e-001
  +9.83315298074029398023e-001
  +9.84129061923489922847e-001
  +9.84903121280915838653e-001
  +9.85639428119496563419e-001
  +9.86339823709757257397e-001
  +9.87006059519548561987e-001
  +9.87639801593913624345e-001
  +9.88242634721341217663e-001
  +9.88816077319903952159e-001
  +9.89361551372278769101e-001
  +9.89880411106282998013e-001
  +9.90373974350603702987e-001
  +9.90843456065724548232e-001
  +9.91290048667304746211e-001
  +9.91714851492398796751e-001
  +9.92118943478747183917e-001
  +9.92503319343441936518e-001
  +9.92868955345590609163e-001
  +9.93216751538629649687e-001
  +9.93547591274590469190e-001
  +9.93862294946611712909e-001
  +9.94161643857608079422e-001
  +9.94446398310521506581e-001
  +9.94717259259914277081e-001
  +9.94974914653425801525e-001
  +9.95219998738287925377e-001
  +9.95453133992631467031e-001
  +9.95674894304655722088e-001
  +9.95885842913481811323e-001
  +9.96086499092428967472e-001
  +9.96277372479172362851e-001
  +9.96458932929651930444e-001
  +9.96631641581155025555e-001
</dep>
<dep Vin.Vt time>
  +1.00000000000000000000e+000
  +1.00000000000000000000e+000
  +1.00000000000000000000e+000
  +1.00000000000000000000e+000
  +1.00000000000000000000e+000
  +1.00000000000000000000e+000
  +1.00000000000000000000e+000
  +1.00000000000000000000e+000
  +1.00000000000000000000e+000
  +1.00000000000000000000e+000
  +1.00000000000000000000e+000
  +1.00000000000000000000e+000
  +1.00000000000000000000e+000
  +1.00000000000000000000e+000
  +1.00000000000000000000e+000
  +1.00000000000000000000e+000
  +1.00000000000000000000e+000
  +1.00000000000000000000e+000
  +1.00000000000000000000e+000
  +1.00000000000000000000e+000
  +1.00000000000000000000e+000
  +1.00000000000000000000e+000
  +1.00000000000000000000e+000
  +1.00000000000000000000e+000
  +1.00000000000000000000e+000
  +1.00000000000000000000e+000
  +1.00000000000000000000e+000
  +1.00000000000000000000e+000
  +1.00000000000000000000e+000
  +1.00000000000000000000e+000
  +1.00000000000000000000e+000
  +1.00000000000000000000e+000
  +1.00000000000000000000e+000
  +1.00000000000000000000e+000
  +1.00000000000000000000e+000
  +1.00000000000000000000e+000
  +1.00000000000000000000e+000
  +1.00000000000000000000e+000
  +1.00000000000000000000e+000
  +1.00000000000000000000e+000
  +1.00000000000000000000e+000
  +1.00000000000000000000e+000
  +1.00000000000000000000e+000
  +1.00000000000000000000e+000
  +1.00000000000000000000e+000
  +1.00000000000000000000e+000
  +1.00000000000000000000e+000
  +1.00000000000000000000e+000
  +1.00000000000000000000e+000
  +1.00000000000000000000e+000
  +1.00000000000000000000e+000
  +1.00000000000000000000e+000
  +1.00000000000000000000e+000
  +1.00000000000000000000e+000
  +1.00000000000000000000e+000
  +1.00000000000000000000e+000
  +1.00000000000000000000e+000
  +1.00000000000000000000e+000
  +1.00000000000000000000e+000
  +1.00000000000000000000e+000
  +1.00000000000000000000e+000
  +1.00000000000000000000e+000
  +1.00000000000000000000e+000
  +1.00000000000000000000e+000
  +1.00000000000000000000e+000
  +1.00000000000000000000e+000
  +1.00000000000000000000e+000
  +1.00000000000000000000e+000
  +1.00000000000000000000e+000
  +1.00000000000000000000e+000
  +1.00000000000000000000e+000
  +1.00000000000000000000e+000
  +1.00000000000000000000e+000
  +1.00000000000000000000e+000
  +1.00000000000000000000e+000
  +1.00000000000000000000e+000
  +1.00000000000000000000e+000
  +1.00000000000000000000e+000
  +1.00000000000000000000e+000
  +1.00000000000000000000e+000
  +1.00000000000000000000e+000
  +1.00000000000000000000e+000
  +1.00000000000000000000e+000
  +1.00000000000000000000e+000
  +1.00000000000000000000e+000
  +1.00000000000000000000e+000
  +1.00000000000000000000e+000
  +1.00000000000000000000e+000
  +1.00000000000000000000e+000
  +1.00000000000000000000e+000
  +1.00000000000000000000e+000
  +1.00000000000000000000e+000
  +1.00000000000000000000e+000
  +1.00000000000000000000e+000
  +1.00000000000000000000e+000
  +1.00000000000000000000e+000
  +1.00000000000000000000e+000
  +1.00000000000000000000e+000
  +1.00000000000000000000e+000
  +1.00000000000000000000e+000
  +1.00000000000000000000e+000
</dep>
