<Qucs Dataset 0.0.19>
<indep time 21>
  +0.00000000000000000000e+000
  +1.00000000000000003037e-013
  +2.00000000000000006075e-013
  +2.99999999999999983869e-013
  +4.00000000000000012149e-013
  +4.99999999999999989943e-013
  +5.99999999999999967737e-013
  +6.99999999999999945531e-013
  +8.00000000000000024299e-013
  +9.00000000000000002093e-013
  +9.99999999999999979887e-013
  +1.09999999999999995768e-012
  +1.19999999999999993547e-012
  +1.29999999999999991327e-012
  +1.39999999999999989106e-012
  +1.50000000000000007080e-012
  +1.60000000000000004860e-012
  +1.70000000000000002639e-012
  +1.80000000000000000419e-012
  +1.89999999999999998198e-012
  +1.99999999999999995977e-012
</indep>
<dep V1.It time>
  +3.00000000000000000000e+015
  -6.66133814761257525561e+000
  -6.66133814738640595010e+000
  -6.66133814775093924254e+000
  -6.66133814775093924254e+000
  -6.66133814775093924254e+000
  -8.00000000000000177636e+000
  -6.66133814570821058965e+000
  +8.00000000000000177636e+000
  -6.66133814570821058965e+000
  -5.48046874999899991110e+000
  -2.81249999999899991110e+000
  -2.81249999999899991110e+000
  -2.81249999999899991110e+000
  -2.81249999999899991110e+000
  -2.81249999999899991110e+000
  -2.81249999999899991110e+000
  -2.81249999999899991110e+000
  -2.81249999999899991110e+000
  -2.81249999999899991110e+000
  -2.81249999999899991110e+000
</dep>
<dep V2.It time>
  -3.99999999999999900000e+015
  -1.55910790159461631887e+000
  +4.40892098254603459484e-001
  +2.44089209849762678317e+000
  +2.44089209849762678317e+000
  +2.44089209849762678317e+000
  -2.99908231929379986980e-012
  -1.55910790286419276285e+000
  -3.00056290578054607465e-012
  -1.55910790286419276285e+000
  -9.99999999999999979887e-013
  -9.99999999999999979887e-013
  -9.99999999999999979887e-013
  -9.99999999999999979887e-013
  -9.99999999999999979887e-013
  -9.99999999999999979887e-013
  -9.99999999999999979887e-013
  -9.99999999999999979887e-013
  -9.99999999999999979887e-013
  -9.99999999999999979887e-013
  -9.99999999999999979887e-013
</dep>
<dep _net1.Vt time>
  +0.00000000000000000000e+000
  +0.00000000000000000000e+000
  +0.00000000000000000000e+000
  +0.00000000000000000000e+000
  +0.00000000000000000000e+000
  +0.00000000000000000000e+000
  +0.00000000000000000000e+000
  +0.00000000000000000000e+000
  +0.00000000000000000000e+000
  +0.00000000000000000000e+000
  +2.00000000000000000000e+000
  +2.00000000000000000000e+000
  +2.00000000000000000000e+000
  +2.00000000000000000000e+000
  +2.00000000000000000000e+000
  +2.00000000000000000000e+000
  +2.00000000000000000000e+000
  +2.00000000000000000000e+000
  +2.00000000000000000000e+000
  +2.00000000000000000000e+000
  +2.00000000000000000000e+000
</dep>
<dep X.Vt time>
  +3.00000000000000000000e+000
  +3.00000000000000000000e+000
  +3.00000000000000000000e+000
  +3.00000000000000000000e+000
  +3.00000000000000000000e+000
  +3.00000000000000000000e+000
  +3.00000000000000000000e+000
  +3.00000000000000000000e+000
  +3.00000000000000000000e+000
  +3.00000000000000000000e+000
  +2.00000000000000000000e+000
  +2.00000000000000000000e+000
  +2.00000000000000000000e+000
  +2.00000000000000000000e+000
  +2.00000000000000000000e+000
  +2.00000000000000000000e+000
  +2.00000000000000000000e+000
  +2.00000000000000000000e+000
  +2.00000000000000000000e+000
  +2.00000000000000000000e+000
  +2.00000000000000000000e+000
</dep>
<dep _net2.Vt time>
  +3.00000000000000000000e+000
  +3.00000000000000000000e+000
  +3.00000000000000000000e+000
  +3.00000000000000000000e+000
  +3.00000000000000000000e+000
  +3.00000000000000000000e+000
  +3.00000000000000000000e+000
  +3.00000000000000000000e+000
  +3.00000000000000000000e+000
  +3.00000000000000000000e+000
  +3.00000000000000000000e+000
  +3.00000000000000000000e+000
  +3.00000000000000000000e+000
  +3.00000000000000000000e+000
  +3.00000000000000000000e+000
  +3.00000000000000000000e+000
  +3.00000000000000000000e+000
  +3.00000000000000000000e+000
  +3.00000000000000000000e+000
  +3.00000000000000000000e+000
  +3.00000000000000000000e+000
</dep>
<dep _net0.Vt time>
  +1.00000000000000000000e+000
  +1.00000000000000000000e+000
  +1.00000000000000000000e+000
  +1.00000000000000000000e+000
  +1.00000000000000000000e+000
  +1.00000000000000000000e+000
  +1.00000000000000000000e+000
  +1.00000000000000000000e+000
  +1.00000000000000000000e+000
  +1.00000000000000000000e+000
  +1.00000000000000000000e+000
  +9.99999999999999888978e-001
  +9.99999999999999888978e-001
  +9.99999999999999888978e-001
  +9.99999999999999888978e-001
  +9.99999999999999888978e-001
  +9.99999999999999888978e-001
  +9.99999999999999888978e-001
  +9.99999999999999888978e-001
  +9.99999999999999888978e-001
  +9.99999999999999888978e-001
</dep>
