<Qucs Dataset 0.0.19>
<indep time 17>
  +0.00000000000000000000e+000
  +5.00000000000000000000e-001
  +1.00000000000000000000e+000
  +1.50000000000000000000e+000
  +2.00000000000000000000e+000
  +2.50000000000000000000e+000
  +3.00000000000000000000e+000
  +3.50000000000000000000e+000
  +4.00000000000000000000e+000
  +4.50000000000000000000e+000
  +5.00000000000000000000e+000
  +5.50000000000000000000e+000
  +6.00000000000000000000e+000
  +6.50000000000000000000e+000
  +7.00000000000000000000e+000
  +7.50000000000000000000e+000
  +8.00000000000000000000e+000
</indep>
<dep V1.It time>
  -6.66666666733333301544e+009
  -6.66666667137168600377e-001
  -6.66666666196178536730e-001
  -6.66666667137116530917e-001
  -6.66666666196175095038e-001
  -6.66666667137113755359e-001
  -6.66666666196175761172e-001
  -6.66666667137116086828e-001
  -6.66666666196173207659e-001
  -6.66666667137116641939e-001
  -6.66666666196178314685e-001
  -6.66666667137112090025e-001
  -6.66666666196173651748e-001
  -6.66666667137121748965e-001
  -6.66666666196178425707e-001
  -6.66666667137121748965e-001
  -6.66666666196173651748e-001
</dep>
<dep _net0.Vt time>
  +1.00000000000000000000e+000
  +1.00000000000000000000e+000
  +1.00000000000000000000e+000
  +1.00000000000000000000e+000
  +1.00000000000000000000e+000
  +1.00000000000000000000e+000
  +1.00000000000000000000e+000
  +1.00000000000000000000e+000
  +1.00000000000000000000e+000
  +1.00000000000000000000e+000
  +1.00000000000000000000e+000
  +1.00000000000000000000e+000
  +1.00000000000000000000e+000
  +1.00000000000000000000e+000
  +1.00000000000000000000e+000
  +1.00000000000000000000e+000
  +1.00000000000000000000e+000
</dep>
<dep X.Vt time>
  +1.66666666656666673241e+000
  +1.27316060565683430994e+000
  +1.03450004260004568835e+000
  +8.89754456588899622638e-001
  +8.01967499240924253101e-001
  +7.48725462003107189446e-001
  +7.16434622738719162349e-001
  +6.96850505479247983587e-001
  +6.84972906210538412530e-001
  +6.77769244053142538853e-001
  +6.73400284694949946562e-001
  +6.70750548289149262082e-001
  +6.69143505869068122571e-001
  +6.68168848414731564311e-001
  +6.67577727022151456993e-001
  +6.67219216963862993275e-001
  +6.67001783686184790412e-001
</dep>
